<Qucs Dataset 0.0.15>
<indep frequency 51>
  +2.00000000000e+09
  +2.02000000000e+09
  +2.04000000000e+09
  +2.06000000000e+09
  +2.08000000000e+09
  +2.10000000000e+09
  +2.12000000000e+09
  +2.14000000000e+09
  +2.16000000000e+09
  +2.18000000000e+09
  +2.20000000000e+09
  +2.22000000000e+09
  +2.24000000000e+09
  +2.26000000000e+09
  +2.28000000000e+09
  +2.30000000000e+09
  +2.32000000000e+09
  +2.34000000000e+09
  +2.36000000000e+09
  +2.38000000000e+09
  +2.40000000000e+09
  +2.42000000000e+09
  +2.44000000000e+09
  +2.46000000000e+09
  +2.48000000000e+09
  +2.50000000000e+09
  +2.52000000000e+09
  +2.54000000000e+09
  +2.56000000000e+09
  +2.58000000000e+09
  +2.60000000000e+09
  +2.62000000000e+09
  +2.64000000000e+09
  +2.66000000000e+09
  +2.68000000000e+09
  +2.70000000000e+09
  +2.72000000000e+09
  +2.74000000000e+09
  +2.76000000000e+09
  +2.78000000000e+09
  +2.80000000000e+09
  +2.82000000000e+09
  +2.84000000000e+09
  +2.86000000000e+09
  +2.88000000000e+09
  +2.90000000000e+09
  +2.92000000000e+09
  +2.94000000000e+09
  +2.96000000000e+09
  +2.98000000000e+09
  +3.00000000000e+09
</indep>
<dep ZL frequency>
  +9.52488677483e+02
  +9.21404417523e+02
  +8.92891584377e+02
  +8.66585046751e+02
  +8.42184737825e+02
  +8.19441581338e+02
  +7.98146916834e+02
  +7.78124450290e+02
  +7.59224053347e+02
  +7.41316933595e+02
  +7.24291834152e+02
  +7.08052014726e+02
  +6.92512832296e+02
  +6.77599786427e+02
  +6.63246927990e+02
  +6.49395554671e+02
  +6.35993134758e+02
  +6.22992414253e+02
  +6.10350672515e+02
  +5.98029099496e+02
  +5.85992273659e+02
  +5.74207724515e+02
  +5.62645567651e+02
  +5.51278203469e+02
  +5.40080073907e+02
  +5.29027474346e+02
  +5.18098420999e+02
  +5.07272577690e+02
  +4.96531250293e+02
  +4.85857462957e+02
  +4.75236138130e+02
  +4.64654413577e+02
  +4.54102145583e+02
  +4.43572670723e+02
  +4.33063932314e+02
  +4.22580126586e+02
  +4.12134093297e+02
  +4.01750771295e+02
  +3.91472160605e+02
  +3.81364356796e+02
  +3.71527267437e+02
  +3.62107352612e+02
  +3.53312615672e+02
  +3.45426126328e+02
  +3.38808563259e+02
  +3.33872932039e+02
  +3.31014547105e+02
  +3.30502618187e+02
  +3.32384382255e+02
  +3.36468824436e+02
  +3.42402370627e+02
</dep>
<dep A[1,1] frequency>
  -2.63389818604e+00+j4.83329270355e-01
  -2.61339966261e+00+j4.62519521615e-01
  -2.59065414598e+00+j4.41829797515e-01
  -2.56567873204e+00+j4.21287087862e-01
  -2.53849291366e+00+j4.00918166574e-01
  -2.50911855991e+00+j3.80749561893e-01
  -2.47757989275e+00+j3.60807526891e-01
  -2.44390346109e+00+j3.41118010271e-01
  -2.40811811234e+00+j3.21706627509e-01
  -2.37025496143e+00+j3.02598632369e-01
  -2.33034735726e+00+j2.83818888823e-01
  -2.28843084685e+00+j2.65391843394e-01
  -2.24454313695e+00+j2.47341497976e-01
  -2.19872405334e+00+j2.29691383137e-01
  -2.15101549783e+00+j2.12464531949e-01
  -2.10146140288e+00+j1.95683454367e-01
  -2.05010768412e+00+j1.79370112196e-01
  -1.99700219061e+00+j1.63545894650e-01
  -1.94219465303e+00+j1.48231594563e-01
  -1.88573662973e+00+j1.33447385243e-01
  -1.82768145091e+00+j1.19212798027e-01
  -1.76808416068e+00+j1.05546700537e-01
  -1.70700145742e+00+j9.24672756702e-02
  -1.64449163220e+00+j7.99920013552e-02
  -1.58061450547e+00+j6.81376310773e-02
  -1.51543136217e+00+j5.69201752115e-02
  -1.44900488509e+00+j4.63548831759e-02
  -1.38139908681e+00+j3.64562264252e-02
  -1.31267924014e+00+j2.72378823054e-02
  -1.24291180716e+00+j1.87127187859e-02
  -1.17216436698e+00+j1.08927800858e-02
  -1.10050554229e+00+j3.78927321155e-03
  -1.02800492475e+00-j2.58744458157e-03
  -9.54732999281e-01-j8.22787738769e-03
  -8.80761067452e-01-j1.31234012976e-02
  -8.06161169913e-01-j1.72662740823e-02
  -7.31006008043e-01-j2.06496439025e-02
  -6.55368864873e-01-j2.32675570341e-02
  -5.79323525366e-01-j2.51149646020e-02
  -5.02944196156e-01-j2.61877283139e-02
  -4.26305424815e-01-j2.64826251883e-02
  -3.49482018764e-01-j2.59973512709e-02
  -2.72548963882e-01-j2.47305243367e-02
  -1.95581342936e-01-j2.26816855729e-02
  -1.18654253896e-01-j1.98513002423e-02
  -4.18427282467e-02-j1.62407573254e-02
  +3.47783506411e-02-j1.18523681426e-02
  +1.11134328959e-01-j6.68936395693e-03
  +1.87150863668e-01-j7.55892560501e-04
  +2.62754003351e-01+j5.94298615123e-03
  +3.37870268645e-01+j1.34013056134e-02
</dep>
<dep A[1,2] frequency>
  -2.10636317573e+03+j4.69797873019e+02
  -2.08963048556e+03+j4.36594920846e+02
  -2.07115733177e+03+j4.03595600006e+02
  -2.05095698786e+03+j3.70840798311e+02
  -2.02904457781e+03+j3.38371075785e+02
  -2.00543706007e+03+j3.06226619702e+02
  -1.98015320957e+03+j2.74447200051e+02
  -1.95321359768e+03+j2.43072125455e+02
  -1.92464057025e+03+j2.12140199607e+02
  -1.89445822366e+03+j1.81689678265e+02
  -1.86269237899e+03+j1.51758226850e+02
  -1.82937055426e+03+j1.22382878709e+02
  -1.79452193486e+03+j9.35999940630e+01
  -1.75817734211e+03+j6.54452197135e+01
  -1.72036920004e+03+j3.79534495279e+01
  -1.68113150039e+03+j1.11587857635e+01
  -1.64049976596e+03-j1.49054987350e+01
  -1.59851101219e+03-j4.02069974218e+01
  -1.55520370716e+03-j6.47142059786e+01
  -1.51061773001e+03-j8.83965572463e+01
  -1.46479432776e+03-j1.11224455121e+02
  -1.41777607064e+03-j1.33169307381e+02
  -1.36960680603e+03-j1.54203557397e+02
  -1.32033161096e+03-j1.74300714710e+02
  -1.26999674319e+03-j1.93435384423e+02
  -1.21864959116e+03-j2.11583295389e+02
  -1.16633862253e+03-j2.28721327154e+02
  -1.11311333165e+03-j2.44827535636e+02
  -1.05902418586e+03-j2.59881177499e+02
  -1.00412257073e+03-j2.73862733206e+02
  -9.48460734280e+02-j2.86753928724e+02
  -8.92091730310e+02-j2.98537755848e+02
  -8.35069360764e+02-j3.09198491133e+02
  -7.77448117339e+02-j3.18721713409e+02
  -7.19283122316e+02-j3.27094319859e+02
  -6.60630068697e+02-j3.34304540637e+02
  -6.01545159725e+02-j3.40341952028e+02
  -5.42085047844e+02-j3.45197488107e+02
  -4.82306773162e+02-j3.48863450914e+02
  -4.22267701501e+02-j3.51333519116e+02
  -3.62025462077e+02-j3.52602755143e+02
  -3.01637884907e+02-j3.52667610811e+02
  -2.41162937988e+02-j3.51525931400e+02
  -1.80658664326e+02-j3.49176958204e+02
  -1.20183118894e+02-j3.45621329537e+02
  -5.97943055675e+01-j3.40861080197e+02
  +4.49885878951e-01-j3.34899639393e+02
  +6.04917426434e+01-j3.27741827132e+02
  +1.20273791578e+02-j3.19393849070e+02
  +1.79738861603e+02-j3.09863289840e+02
  +2.38830145787e+02-j2.99159104854e+02
</dep>
<dep A[2,1] frequency>
  -2.96463939409e-04-j1.18370651803e-03
  -2.97380591187e-04-j1.25587000126e-03
  -2.97508324460e-04-j1.32750219959e-03
  -2.96852843228e-04-j1.39853016401e-03
  -2.95420751228e-04-j1.46888153593e-03
  -2.93219544171e-04-j1.53848462619e-03
  -2.90257600998e-04-j1.60726849335e-03
  -2.86544174160e-04-j1.67516302113e-03
  -2.82089378939e-04-j1.74209899503e-03
  -2.76904181817e-04-j1.80800817783e-03
  -2.71000387901e-04-j1.87282338420e-03
  -2.64390627431e-04-j1.93647855398e-03
  -2.57088341374e-04-j1.99890882439e-03
  -2.49107766126e-04-j2.06005060078e-03
  -2.40463917336e-04-j2.11984162614e-03
  -2.31172572874e-04-j2.17822104906e-03
  -2.21250254951e-04-j2.23512949013e-03
  -2.10714211428e-04-j2.29050910682e-03
  -1.99582396319e-04-j2.34430365662e-03
  -1.87873449517e-04-j2.39645855839e-03
  -1.75606675763e-04-j2.44692095200e-03
  -1.62802022884e-04-j2.49563975600e-03
  -1.49480059320e-04-j2.54256572335e-03
  -1.35661950965e-04-j2.58765149519e-03
  -1.21369437353e-04-j2.63085165249e-03
  -1.06624807212e-04-j2.67212276560e-03
  -9.14508734023e-05-j2.71142344163e-03
  -7.58709472915e-05-j2.74871436957e-03
  -5.99088125676e-05-j2.78395836317e-03
  -4.35886985361e-05-j2.81712040145e-03
  -2.69352529250e-05-j2.84816766686e-03
  -9.97351422684e-06-j2.87706958105e-03
  +7.27111639030e-06-j2.90379783814e-03
  +2.47729035720e-05-j2.92832643552e-03
  +4.25058066361e-05-j2.95063170213e-03
  +6.04435087688e-05-j2.97069232421e-03
  +7.85594465261e-05-j2.98848936840e-03
  +9.68268396079e-05-j3.00400630234e-03
  +1.15218720872e-04-j3.01722901248e-03
  +1.33707966555e-04-j3.02814581943e-03
  +1.52267326669e-04-j3.03674749048e-03
  +1.70869455535e-04-j3.04302724955e-03
  +1.89486942426e-04-j3.04698078435e-03
  +2.08092342281e-04-j3.04860625098e-03
  +2.26658206462e-04-j3.04790427564e-03
  +2.45157113510e-04-j3.04487795383e-03
  +2.63561699880e-04-j3.03953284669e-03
  +2.81844690607e-04-j3.03187697469e-03
  +2.99978929882e-04-j3.02192080870e-03
  +3.17937411490e-04-j3.00967725823e-03
  +3.35693309096e-04-j2.99516165713e-03
</dep>
<dep A[2,2] frequency>
  -6.42252094204e-01-j1.01160209703e+00
  -6.41219436248e-01-j1.06797514812e+00
  -6.38979532676e-01-j1.12392967042e+00
  -6.35541201614e-01-j1.17940930464e+00
  -6.30914620552e-01-j1.23435814793e+00
  -6.25111314614e-01-j1.28872081483e+00
  -6.18144143340e-01-j1.34244249770e+00
  -6.10027286000e-01-j1.39546902653e+00
  -6.00776225456e-01-j1.44774692802e+00
  -5.90407730587e-01-j1.49922348392e+00
  -5.78939837297e-01-j1.54984678858e+00
  -5.66391828126e-01-j1.59956580550e+00
  -5.52784210494e-01-j1.64833042311e+00
  -5.38138693588e-01-j1.69609150934e+00
  -5.22478163934e-01-j1.74280096529e+00
  -5.05826659663e-01-j1.78841177767e+00
  -4.88209343517e-01-j1.83287807010e+00
  -4.69652474610e-01-j1.87615515310e+00
  -4.50183378987e-01-j1.91819957289e+00
  -4.29830419002e-01-j1.95896915876e+00
  -4.08622961560e-01-j1.99842306905e+00
  -3.86591345249e-01-j2.03652183569e+00
  -3.63766846399e-01-j2.07322740720e+00
  -3.40181644119e-01-j2.10850319023e+00
  -3.15868784325e-01-j2.14231408938e+00
  -2.90862142821e-01-j2.17462654549e+00
  -2.65196387468e-01-j2.20540857217e+00
  -2.38906939472e-01-j2.23462979067e+00
  -2.12029933852e-01-j2.26226146293e+00
  -1.84602179108e-01-j2.28827652288e+00
  -1.56661116163e-01-j2.31264960591e+00
  -1.28244776591e-01-j2.33535707643e+00
  -9.93917402100e-02-j2.35637705358e+00
  -7.01410920548e-02-j2.37568943503e+00
  -4.05323788054e-02-j2.39327591877e+00
  -1.06055646989e-02-j2.40912002299e+00
  +1.95990130175e-02-j2.42320710394e+00
  +5.00406890456e-02-j2.43552437177e+00
  +8.06785153566e-02-j2.44606090438e+00
  +1.11471306826e-01-j2.45480765917e+00
  +1.42377687129e-01-j2.46175748275e+00
  +1.73356134849e-01-j2.46690511863e+00
  +2.04365029746e-01-j2.47024721273e+00
  +2.35362699137e-01-j2.47178231694e+00
  +2.66307464335e-01-j2.47151089044e+00
  +2.97157687095e-01-j2.46943529907e+00
  +3.27871816017e-01-j2.46555981254e+00
  +3.58408432858e-01-j2.45989059955e+00
  +3.88726298697e-01-j2.45243572086e+00
  +4.18784399903e-01-j2.44320512028e+00
  +4.48541993859e-01-j2.43221061361e+00
</dep>
<dep S[1,1] frequency>
  +9.80927756822e-01-j5.08512183579e-02
  +9.80486301311e-01-j5.36790126274e-02
  +9.79999293566e-01-j5.65752429435e-02
  +9.79463416008e-01-j5.95449383887e-02
  +9.78874938482e-01-j6.25934942128e-02
  +9.78229664247e-01-j6.57267071384e-02
  +9.77522867165e-01-j6.89508142148e-02
  +9.76749218472e-01-j7.22725355397e-02
  +9.75902701176e-01-j7.56991211671e-02
  +9.74976509736e-01-j7.92384025056e-02
  +9.73962932137e-01-j8.28988484709e-02
  +9.72853210868e-01-j8.66896265822e-02
  +9.71637378502e-01-j9.06206690632e-02
  +9.70304062628e-01-j9.47027437998e-02
  +9.68840253643e-01-j9.89475296891e-02
  +9.67231027372e-01-j1.03367695421e-01
  +9.65459212599e-01-j1.07976980013e-01
  +9.63504991131e-01-j1.12790272327e-01
  +9.61345414985e-01-j1.17823685226e-01
  +9.58953821468e-01-j1.23094617686e-01
  +9.56299122039e-01-j1.28621794787e-01
  +9.53344934795e-01-j1.34425270529e-01
  +9.50048522814e-01-j1.40526371154e-01
  +9.46359491157e-01-j1.46947546002e-01
  +9.42218183818e-01-j1.53712077324e-01
  +9.37553708160e-01-j1.60843577539e-01
  +9.32281498580e-01-j1.68365168654e-01
  +9.26300314293e-01-j1.76298188817e-01
  +9.19488550782e-01-j1.84660197580e-01
  +9.11699736199e-01-j1.93461943455e-01
  +9.02757094463e-01-j2.02702798946e-01
  +8.92447108446e-01-j2.12363938066e-01
  +8.80512152221e-01-j2.22398202163e-01
  +8.66642559431e-01-j2.32715142519e-01
  +8.50469095921e-01-j2.43159125372e-01
  +8.31557950759e-01-j2.53477669963e-01
  +8.09412442244e-01-j2.63276538981e-01
  +7.83489223800e-01-j2.71958035737e-01
  +7.53242511627e-01-j2.78640748010e-01
  +7.18217923020e-01-j2.82065267649e-01
  +6.78226002117e-01-j2.80505912223e-01
  +6.33626720699e-01-j2.71739308570e-01
  +5.85731007439e-01-j2.53168630011e-01
  +5.37241847271e-01-j2.22247115293e-01
  +4.92496603159e-01-j1.77315712576e-01
  +4.57108020684e-01-j1.18750726447e-01
  +4.36683178594e-01-j4.98876190181e-02
  +4.34882450901e-01+j2.31121723059e-02
  +4.51872878576e-01+j9.28509771962e-02
  +4.84279155680e-01+j1.53012989410e-01
  +5.26659879448e-01+j2.00016360916e-01
</dep>
<dep S[1,2] frequency>
  -4.24389007224e-02-j8.23068116240e-03
  -4.30060823722e-02-j7.69573504626e-03
  -4.36030395947e-02-j7.14888903416e-03
  -4.42315536897e-02-j6.58822378128e-03
  -4.48935304620e-02-j6.01164847000e-03
  -4.55910119972e-02-j5.41687644225e-03
  -4.63261893803e-02-j4.80139711007e-03
  -4.71014164043e-02-j4.16244347350e-03
  -4.79192242971e-02-j3.49695443869e-03
  -4.87823374676e-02-j2.80153096267e-03
  -4.96936902293e-02-j2.07238484700e-03
  -5.06564443944e-02-j1.30527875041e-03
  -5.16740075385e-02-j4.95455679679e-04
  -5.27500516016e-02+j3.62444166883e-04
  -5.38885312942e-02+j1.27448180712e-03
  -5.50937015010e-02+j2.24753633158e-03
  -5.63701324770e-02+j3.28944414714e-03
  -5.77227210656e-02+j4.40916546826e-03
  -5.91566953674e-02+j5.61698406763e-03
  -6.06776091390e-02+j6.92474773055e-03
  -6.22913205726e-02+j8.34615863797e-03
  -6.40039477710e-02+j9.89712510277e-03
  -6.58217898871e-02+j1.15961887789e-02
  -6.77511980891e-02+j1.34650447184e-02
  -6.97983735858e-02+j1.55291754921e-02
  -7.19690599284e-02+j1.78186249525e-02
  -7.42680823048e-02+j2.03689418312e-02
  -7.66986654964e-02+j2.32223275616e-02
  -7.92614316499e-02+j2.64290250735e-02
  -8.19529348318e-02+j3.00489829466e-02
  -8.47635257467e-02+j3.41538167328e-02
  -8.76742495027e-02+j3.88290562020e-02
  -9.06523531455e-02+j4.41765950080e-02
  -9.36448101696e-02+j5.03171144464e-02
  -9.65690567919e-02+j5.73919777662e-02
  -9.92999055825e-02+j6.55635897175e-02
  -1.01651448115e-01+j7.50123383227e-02
  -1.03352921108e-01+j8.59267792699e-02
  -1.04018536083e-01+j9.84814940944e-02
  -1.03114244779e-01+j1.12794117915e-01
  -9.99311360197e-02+j1.28850412034e-01
  -9.35877103905e-02+j1.46387391744e-01
  -8.31013601885e-02+j1.64737265722e-01
  -6.75831373621e-02+j1.82671127193e-01
  -4.65897536902e-02+j1.98344976093e-01
  -2.05694262004e-02+j2.09505602427e-01
  +8.83153615872e-03+j2.14058079623e-01
  +3.89249906959e-02+j2.10844818337e-01
  +6.67063001845e-02+j2.00188110541e-01
  +8.97956911772e-02+j1.83787779600e-01
  +1.07029491981e-01+j1.64036243034e-01
</dep>
<dep S[2,1] frequency>
  -4.24389007224e-02-j8.23068116240e-03
  -4.30060823722e-02-j7.69573504626e-03
  -4.36030395947e-02-j7.14888903416e-03
  -4.42315536897e-02-j6.58822378128e-03
  -4.48935304620e-02-j6.01164847000e-03
  -4.55910119972e-02-j5.41687644225e-03
  -4.63261893803e-02-j4.80139711007e-03
  -4.71014164043e-02-j4.16244347350e-03
  -4.79192242971e-02-j3.49695443869e-03
  -4.87823374676e-02-j2.80153096267e-03
  -4.96936902293e-02-j2.07238484700e-03
  -5.06564443944e-02-j1.30527875041e-03
  -5.16740075385e-02-j4.95455679679e-04
  -5.27500516016e-02+j3.62444166883e-04
  -5.38885312942e-02+j1.27448180712e-03
  -5.50937015010e-02+j2.24753633158e-03
  -5.63701324770e-02+j3.28944414714e-03
  -5.77227210656e-02+j4.40916546826e-03
  -5.91566953674e-02+j5.61698406763e-03
  -6.06776091390e-02+j6.92474773055e-03
  -6.22913205726e-02+j8.34615863797e-03
  -6.40039477710e-02+j9.89712510277e-03
  -6.58217898871e-02+j1.15961887789e-02
  -6.77511980891e-02+j1.34650447184e-02
  -6.97983735858e-02+j1.55291754921e-02
  -7.19690599284e-02+j1.78186249525e-02
  -7.42680823048e-02+j2.03689418312e-02
  -7.66986654964e-02+j2.32223275616e-02
  -7.92614316499e-02+j2.64290250735e-02
  -8.19529348318e-02+j3.00489829466e-02
  -8.47635257467e-02+j3.41538167328e-02
  -8.76742495027e-02+j3.88290562020e-02
  -9.06523531455e-02+j4.41765950080e-02
  -9.36448101696e-02+j5.03171144464e-02
  -9.65690567919e-02+j5.73919777662e-02
  -9.92999055825e-02+j6.55635897175e-02
  -1.01651448115e-01+j7.50123383227e-02
  -1.03352921108e-01+j8.59267792699e-02
  -1.04018536083e-01+j9.84814940944e-02
  -1.03114244779e-01+j1.12794117915e-01
  -9.99311360197e-02+j1.28850412034e-01
  -9.35877103905e-02+j1.46387391744e-01
  -8.31013601885e-02+j1.64737265722e-01
  -6.75831373621e-02+j1.82671127193e-01
  -4.65897536902e-02+j1.98344976093e-01
  -2.05694262004e-02+j2.09505602427e-01
  +8.83153615872e-03+j2.14058079623e-01
  +3.89249906959e-02+j2.10844818337e-01
  +6.67063001845e-02+j2.00188110541e-01
  +8.97956911772e-02+j1.83787779600e-01
  +1.07029491981e-01+j1.64036243034e-01
</dep>
<dep S[2,2] frequency>
  +8.84100182611e-01-j3.80057844090e-03
  +8.83892274575e-01-j3.03580927612e-03
  +8.83706907436e-01-j2.25567610877e-03
  +8.83544688163e-01-j1.45982794187e-03
  +8.83406307917e-01-j6.47857300955e-04
  +8.83292552569e-01+j1.80702371635e-04
  +8.83204314752e-01+j1.02637955291e-03
  +8.83142607738e-01+j1.88976768677e-03
  +8.83108581451e-01+j2.77152840978e-03
  +8.83103541032e-01+j3.67239490189e-03
  +8.83128968411e-01+j4.59317528065e-03
  +8.83186547482e-01+j5.53475591852e-03
  +8.83278193563e-01+j6.49810450857e-03
  +8.83406087988e-01+j7.48427262884e-03
  +8.83572718865e-01+j8.49439745157e-03
  +8.83780929243e-01+j9.52970209982e-03
  +8.84033974230e-01+j1.05914939541e-02
  +8.84335588930e-01+j1.16811599349e-02
  +8.84690069506e-01+j1.28001573995e-02
  +8.85102370185e-01+j1.39499987555e-02
  +8.85578219652e-01+j1.51322271341e-02
  +8.86124261072e-01+j1.63483794085e-02
  +8.86748220859e-01+j1.75999313453e-02
  +8.87459112406e-01+j1.88882175560e-02
  +8.88267482166e-01+j2.02143159101e-02
  +8.89185706707e-01+j2.15788817845e-02
  +8.90228350485e-01+j2.29819114062e-02
  +8.91412594662e-01+j2.44224048038e-02
  +8.92758746622e-01+j2.58978863974e-02
  +8.94290836600e-01+j2.74037234899e-02
  +8.96037299339e-01+j2.89321578323e-02
  +8.98031720567e-01+j3.04709305302e-02
  +9.00313592171e-01+j3.20013332744e-02
  +9.02928952345e-01+j3.34954578649e-02
  +9.05930664332e-01+j3.49123444791e-02
  +9.09377872133e-01+j3.61926627683e-02
  +9.13333807923e-01+j3.72515437978e-02
  +9.17860544687e-01+j3.79693235634e-02
  +9.23008438810e-01+j3.81804916562e-02
  +9.28796975301e-01+j3.76624970684e-02
  +9.35183021517e-01+j3.61289241043e-02
  +9.42013616549e-01+j3.32365742634e-02
  +9.48966538401e-01+j2.86226404532e-02
  +9.55497269821e-01+j2.19918230129e-02
  +9.60835694331e-01+j1.32617266629e-02
  +9.64092976998e-01+j2.73256387347e-03
  +9.64507547635e-01-j8.81860068775e-03
  +9.61752361956e-01-j2.02421994486e-02
  +9.56116382533e-01-j3.03385079165e-02
  +9.48413505378e-01-j3.82334774704e-02
  +9.39674009123e-01-j4.35820663669e-02
</dep>
