# Hz S DB R 50
2000000000	-9.17527153366939	136.631440550528	2.93962771647473	129.386042606102			-2.88089985986171	130.307433465455	-15.5217011196608	72.7568446041839
2005000000	-9.17923562334426	127.521842849017	3.23890896698885	121.293241504632			-2.83625008002923	133.779669178206	-16.2228168534795	93.6683862976603
2010000000	-9.97688113018697	122.929074892103	2.76775002248849	115.671687714962			-2.39497749966442	134.617316877961	-13.6826950196606	95.6356333044002
2015000000	-10.6017150329912	128.575613608692	2.0783004057307	116.438700605447			-1.98334530619184	133.55449326178	-12.6600047092415	84.7026643343847
2020000000	-10.2523182778531	137.814934810224	1.99254940658123	123.399060991752			-1.87237694104795	130.428061435705	-12.6749771521471	75.6291549513693
2025000000	-9.09707247588924	148.945156367451	3.00048384716322	129.801572791965			-2.16387737749584	127.302622248574	-13.4743177130768	69.2874019655447
2030000000	-7.5780724172407	155.854444493864	4.62468914045104	129.521721822452			-2.73982625701381	127.159383089895	-16.7505076309477	65.8887428429481
2035000000	-6.93553434174334	153.395481464345	5.71917540338941	120.419451842154			-2.96784964342112	130.153637658403	-19.2530481621466	110.143675399696
2040000000	-7.70467529951635	150.203644673506	5.41129072302507	109.243826839913			-2.57256931252012	131.792490854765	-13.6997019603808	116.057763778112
2045000000	-9.07678054645065	158.479683708706	4.14714266268252	106.931059517709			-2.16589810968997	130.739590409147	-12.5566831677788	96.5874901786079
2050000000	-9.64581245899606	174.220593502787	3.28723534785158	116.623659258013			-2.02515388728945	127.688264202229	-13.574002287541	79.7715228190203
2055000000	-9.21820984727259	-165.04253837597	3.80800859153772	131.656895404053			-2.12276527410814	123.812717001674	-15.1627103029337	66.3781245769565
2060000000	-8.15589206622102	-143.517232501408	5.36634730917289	143.121865445084			-2.47750500151087	121.169857959059	-17.6570663908177	42.0716260018425
2065000000	-6.93923907088488	-127.941025159817	7.03086756845117	146.491155112012			-2.88610023655462	119.775440987094	-22.6375228025128	-5.22301051947934
2070000000	-6.40772056858202	-118.274255590045	7.8092209396643	141.923582242933			-2.98032639130241	120.253155683559	-29.3104097819992	-128.53342607725
2075000000	-7.57136664299622	-108.774140368896	6.45011286535109	134.668575208387			-2.67531618620131	121.139770049589	-22.2634022697146	112.789472221674
2080000000	-9.51189418575565	-95.0721120903904	3.82959032942309	135.590809347411			-2.28742322054091	120.443066402505	-17.1152802012801	63.8829818355997
2085000000	-10.8278287452027	-77.2843493167692	1.92925497433031	144.65730611678			-2.03907496570707	118.335906500939	-15.1212374412352	45.0883088840226
2090000000	-11.4592705653356	-59.2373713809189	1.45273779045963	151.772334185516			-1.94210886539352	116.884452473112	-14.237471142559	35.0922794691443
2095000000	-11.4472190391368	-46.0329052739806	1.81472898784563	153.431309991931			-1.95200773037849	116.228058991036	-14.3197033900899	25.5570353825865
2100000000	-11.1371620892876	-37.9279124356272	2.2525437941901	149.289243523882			-1.95636516053856	115.803386589782	-15.71912452604	22.0471872788817
2105000000	-11.1263104825469	-33.3334203320351	2.16222137615435	141.232921915528			-1.91386808185112	115.60072332642	-17.0432111749323	30.7558622450207
2110000000	-11.5349723867823	-29.4782109079768	1.26965458226901	134.464857724733			-1.82965059488719	115.513576682494	-15.8143283225966	39.8664983889482
2115000000	-12.0655468412086	-24.0636377512348	0.156387580641183	133.386979583337			-1.76725020688987	115.032975712861	-14.6304731302719	38.753252655284
2120000000	-12.4250564749791	-16.9301803715758	-0.286117168581753	134.966399960975			-1.63780249181123	114.392360506448	-14.3285779279645	36.6012862609706
2125000000	-12.5646445516839	-10.6871828697386	-6.05513401128091E-02	135.551306190875			-1.63741233847073	113.697376559276	-14.362870164183	34.829996104068
2130000000	-12.4898784290063	-7.06706976566745	0.345913610253556	133.131383389465			-1.627777980182	112.835406120543	-14.7771350605925	33.7032945948016
2135000000	-12.5586098121653	-5.52651863642831	0.604192083720141	128.77858618817			-1.57372321789695	112.64496060818	-15.1544764213958	34.5134225998945
2140000000	-12.7297359151013	-5.66545216501451	0.445887974154889	124.356246009512			-1.56126178276717	112.236860188487	-14.9411528387277	36.0942066656095
2145000000	-12.8121399284309	-6.34154097758916	-8.35534571681682E-02	121.724337958268			-1.51409480549105	111.494128714537	-14.3960167259039	35.1682630014967
2150000000	-12.7441093695888	-5.69304193796231	-0.490378165172025	121.333654749068			-1.425130609137	110.601219402437	-14.0500127316038	32.6822180375603
2155000000	-12.583026791621	-4.32921557138257	-0.654723907396021	122.249457020079			-1.46279779700384	109.510867277706	-13.7832388674205	29.3790309419188
2160000000	-12.2491497314408	-2.60337489870055	-0.574652327363752	121.837743140698			-1.47294628018312	108.575382303824	-13.6321994743349	26.1864049615173
2165000000	-12.0384460774659	-0.603857078707562	-0.395262610998723	120.100589671863			-1.46184598701699	108.443731686018	-13.7449046536727	23.3692092098473
2170000000	-12.0439415824426	1.90994071170496	-0.238054611568124	117.531260167711			-1.44432546394757	108.157127924198	-14.0139523784229	23.2472885208029
2175000000	-12.2273616484015	3.5935485775831	-0.279459937185672	114.632121887159			-1.33968543918236	107.661696058068	-14.0988835339499	25.7805673822755
2180000000	-12.5123662240276	5.04584583863946	-0.448705325846299	112.188155606443			-1.21690706162033	106.875011053257	-13.9738576659219	26.0538823777241
2185000000	-12.8772644676361	5.20314312319129	-0.642504726098341	111.474190625689			-1.21579515475116	105.701294810225	-13.8505319118818	23.5854512522519
2190000000	-13.1535968865784	3.31254493841732	-0.703087739573421	111.856947222192			-1.2859140843172	104.542547148316	-13.7947217811017	20.119538245514
2195000000	-13.1131289921253	0.77819773585824	-0.570253823413767	111.919443940957			-1.349437101451	104.241665064982	-13.8569190854846	15.4824531939224
2200000000	-12.9366263606503	-0.819347110181841	-0.361193121069559	111.225881323882			-1.36999867365506	104.023132468965	-13.9587198204564	12.3403184356089
2205000000	-12.711042397014	-1.29731161023154	-0.214415415823649	109.200030838816			-1.30394966833805	103.603899307124	-14.0013868659646	13.7815877958279
2210000000	-12.5617828715652	-0.556243970532523	-0.288987075237665	106.243294576896			-1.19577353894589	102.658861814943	-13.6245427029337	15.2656180545693
2215000000	-12.5666122245413	0.45479139636479	-0.53688216250818	104.589959116947			-1.13491546022801	101.524335461951	-13.3433082029529	12.9739663558974
2220000000	-12.7832929172016	0.430209015999115	-0.740902274711773	104.550844823151			-1.21211618246952	100.213210396537	-13.4421854667162	9.73521351022508
2225000000	-12.9782493337776	-0.436467936204528	-0.745935816996007	104.74123772477			-1.2599115681852	99.5362330881681	-13.6260586955514	6.37890320929175
2230000000	-13.0282792418942	-2.23482880154884	-0.498427116899211	104.169673157489			-1.30706558884953	99.4017923334682	-13.7836548742386	3.94871283044508
2235000000	-12.9352944887177	-3.74248810977494	-0.302927206643231	102.225922589751			-1.27608964143499	98.8391162083539	-13.6962625502498	4.87358041515617
2240000000	-12.7911933087187	-5.10186997468859	-0.354441656945275	99.4125525885721			-1.186106298596	97.9417468421034	-13.2242118416769	5.23832223208369
2245000000	-12.6079338974668	-5.94385516809863	-0.589622604070131	97.384832971743			-1.17536012563017	96.9951763777039	-12.8043382812278	1.89496915175121
2250000000	-12.7246587234473	-6.15587191714322	-0.829958868162967	97.4426937127669			-1.23944120512082	95.5432796879314	-12.8650837219154	-2.78589654281309
2255000000	-12.8210291231704	-6.43558940235927	-0.928283378056187	97.883001990844			-1.31837595862175	94.7265200485628	-13.1143043319643	-7.44991865098354
2260000000	-12.9105668953576	-6.85883868919435	-0.775961163257272	98.0971768065012			-1.37115842085306	94.6452505611092	-13.3419649523196	-11.818416537979
2265000000	-12.8857742300174	-8.14233727588846	-0.62508099242878	96.7027228931341			-1.33331790679605	94.2957709523063	-13.4114036128446	-13.234838680929
2270000000	-12.6514248370662	-10.0187935405213	-0.626680695767151	94.1954815313626			-1.27227653809087	93.329660281168	-13.0356877900458	-13.1678815712184
2275000000	-12.3273013838396	-12.6120147769446	-0.840123404079082	92.3421588811441			-1.25300781168493	92.1181907540038	-12.6713030850656	-16.3404630682659
2280000000	-12.2670100949345	-14.5002023078717	-1.10089215018965	92.3542262678319			-1.35393611593429	90.8894780783403	-12.7058382053843	-20.5965181618138
2285000000	-12.2157838716353	-15.6022544921183	-1.23892564907859	93.088085726457			-1.45249410113298	89.9541768050218	-13.0069090707097	-25.2040021032275
2290000000	-12.2219579491983	-16.4846232932815	-1.11141984411514	93.656238196041			-1.54101703286446	89.8534679929058	-13.3619173370243	-30.6271424645838
2295000000	-12.3489674358324	-17.3928507107191	-0.921478986561475	93.0037522926679			-1.57417835267254	89.727037234582	-13.9617584535793	-34.9076195233488
2300000000	-12.5274525324594	-18.4192062272104	-0.899193285717309	91.1243773368961			-1.52801676147318	89.3327313352964	-14.3024635152805	-37.3949991987676
2305000000	-12.6686466473462	-20.4789523663186	-1.04273581414114	89.1113876198317			-1.5251200906541	88.6945570692656	-14.386584274351	-42.1468130111069
2310000000	-13.084877897574	-22.9798877508443	-1.30270300667834	89.0273796938816			-1.60662501556779	87.7313659870581	-14.6396925082103	-49.2478331896179
2315000000	-13.4735202285376	-24.7747809479241	-1.46247684927832	90.0000888663473			-1.73742520806083	87.1558139186063	-15.1414127936011	-56.7571897039844
2320000000	-13.9005590572264	-25.7635882000262	-1.37570340279275	91.1744424764846			-1.84021313194017	87.5048188008299	-15.7842986198487	-64.7200265188774
2325000000	-14.4489505413696	-25.9425219449845	-1.14676491143185	91.0655284490879			-1.88436922090421	88.2655572339656	-16.8412676562506	-71.1222456169293
2330000000	-15.0008778445986	-25.3702001798618	-0.997216896906517	89.5887533128495			-1.80296915725834	88.6548317375023	-18.4994077981808	-73.597032348974
2335000000	-15.5817170765602	-25.1554347692834	-1.065985842427	88.0600785827538			-1.67988928331749	88.5921449902013	-20.1250400986428	-74.3145980269181
2340000000	-16.31581136348	-24.748540746062	-1.13672053674466	87.8956014136216			-1.59441488826811	88.185587513828	-21.9572200840662	-76.8995241476377
2345000000	-17.0077664975621	-22.202477363257	-1.14104244195403	88.6707183995687			-1.53543494471882	88.0628902166195	-24.3316162835407	-77.6801784865879
2350000000	-17.2280038526679	-20.7427644944206	-0.928275465841088	88.6524551424825			-1.49852935760011	87.8165108259606	-26.7059152280143	-71.7463472729054
2355000000	-17.1217434529832	-18.5419484187912	-0.699992547060634	87.6662403593949			-1.38940001864013	87.6210441390454	-28.149626259671	-49.5267078335709
2360000000	-16.8834812647145	-17.0269819043358	-0.660102462578808	86.103802422423			-1.27614747938272	87.1130328256653	-26.3948329516175	-22.1859923039945
2365000000	-16.6117717238767	-16.7863226928216	-0.708167817408845	84.5742956841581			-1.15360027122345	86.2446603921393	-23.8039096546563	-9.12860078933649
2370000000	-16.4446021386462	-16.8163149640568	-0.727805185698538	83.8129968117757			-1.10077069827316	85.131919827697	-21.9579661998732	-3.62051107755667
2375000000	-16.1710448422684	-15.5735971758025	-0.716457549890669	83.3680657413269			-1.04874169229798	84.1518481201963	-20.7219817487263	-0.72662412071603
2380000000	-15.8397661437905	-14.9176661685981	-0.635246220900524	82.6460556526806			-1.00538124935397	83.2799511143499	-19.8375095680984	-1.92120128751946
2385000000	-15.4167275215764	-14.0487469082388	-0.565586512165062	81.7303570947043			-0.95849544687033	82.4627716284681	-19.0927510088466	-5.10346970416664
2390000000	-15.1450806747925	-13.0192354168579	-0.544971612519577	80.5585771928393			-0.941338719958375	81.3193388876496	-18.3436758357823	-7.61919565969544
2395000000	-15.1076000769836	-11.9930428746551	-0.572029879029954	79.2724655015518			-0.878774814318301	80.4853726522332	-17.9656492824813	-8.63902243789743
2400000000	-15.3387856169767	-11.1472060696843	-0.607768922847704	78.2585467165411			-0.83831446378028	79.6594739547041	-17.9066151412246	-9.70299710429943
2405000000	-15.4911224324015	-10.8537344339041	-0.621588044941036	77.5143763314667			-0.8383833062132	78.7633393036133	-17.8914463748144	-11.893994407365
2410000000	-15.5029446830432	-12.2287250375254	-0.641118580199274	77.0112815119895			-0.809713416931421	77.9132474632373	-17.8836242358057	-16.8511383972573
2415000000	-15.2252248382196	-13.995111897292	-0.601874992236647	76.6849376817111			-0.831282646701679	77.3343269164174	-17.5050994818747	-23.1341769061479
2420000000	-14.7530535267041	-15.689882301211	-0.616299569211846	76.0712735379576			-0.858308800546635	76.3954359499596	-16.8361287727569	-27.9184045692506
2425000000	-14.4338308891533	-16.2365623409362	-0.601113442640833	75.094727784231			-0.856213068861892	75.7396200774076	-16.2204967191676	-29.7560542157397
2430000000	-14.436262467489	-15.6480558893251	-0.58604562465446	73.9656689716351			-0.82429611331829	74.959578830834	-15.9557200759619	-28.744026658869
2435000000	-14.5677030607986	-14.9548531658185	-0.589178359706108	73.0206564401107			-0.77647874122212	73.9769104197001	-16.108240694438	-28.0575195777991
2440000000	-14.9340233933873	-14.7824868288002	-0.618953917678933	72.3508408529298			-0.736350329606102	73.3424014173812	-16.7223021459712	-29.5135604905444
2445000000	-15.1418190523357	-16.4156365656043	-0.601448458520136	71.9137044881213			-0.751675691977419	72.6710563365925	-17.2435847012019	-34.3687987060961
2450000000	-14.8602933145844	-19.4107181677332	-0.595288722360089	71.7631415979123			-0.777195861137606	71.9127357676249	-17.0451906411782	-40.552616536336
2455000000	-14.2785088244072	-21.7262786530095	-0.569003278259882	71.479364234732			-0.77119419096123	71.4474182946313	-16.32258446443	-45.2752019905025
2460000000	-13.7920211135684	-22.6715460844393	-0.56589673844309	70.6436377924251			-0.794737945539928	70.7792000355167	-15.5717495850631	-47.4189557205999
2465000000	-13.4752595771445	-22.4647502416538	-0.581342809073429	69.7887743124775			-0.782695441382278	69.9457183801089	-15.0075888074007	-47.4935684761253
2470000000	-13.4787072967772	-20.7771122992931	-0.634000339814119	68.6711229841946			-0.766170648729071	69.0272442092252	-14.8740776071233	-48.1613653347925
2475000000	-13.6298155853181	-19.6744634819336	-0.66079692155376	67.9027682341157			-0.766085031015023	68.2225079224396	-15.0734373612918	-50.7140801470062
2480000000	-13.6578896880481	-20.0890729774743	-0.666401919513764	67.5037972774675			-0.783550078424764	67.4935685895163	-15.0554494021762	-53.9381186007316
2485000000	-13.5497280800546	-21.213383906407	-0.647057758769786	67.1517822993416			-0.799940528028491	66.9745189435448	-14.8170643321821	-56.2656832664355
2490000000	-13.4078682970918	-22.2865298125282	-0.627147912095596	66.3304271569396			-0.80202830105082	66.4220968764164	-14.4885850632947	-57.9108891051745
2495000000	-13.3427897816935	-23.1324205677751	-0.576975223358357	65.6472890399591			-0.824654591197997	65.5983011020814	-14.2663771256606	-57.7764485983663
2500000000	-13.4295143633052	-21.9272862466823	-0.563196875908559	64.5564536873193			-0.789162964118399	64.9043910014499	-14.2661646886248	-58.1912813349961
2505000000	-13.8133677148875	-21.0182117306085	-0.595669810753703	63.7916941955844			-0.777867335760342	64.2514988479898	-14.5911002156211	-60.1162213308664
2510000000	-14.1534964335753	-22.4633897455754	-0.621149473986471	63.4226498150913			-0.767236096886711	63.7633953062462	-14.6096893991884	-62.6850945318299
2515000000	-14.3029063018364	-26.8809113825945	-0.620159847244814	63.3692572829996			-0.755998837395661	63.2772386559646	-14.2353371269809	-64.7208606965861
2520000000	-13.933270756649	-32.3063887996508	-0.557459838232295	63.0860096215938			-0.773856221570719	62.8892265359706	-13.7002316632462	-66.5206937299669
2525000000	-13.3298624806905	-36.1456161846895	-0.525069884145852	62.4690247837439			-0.828192692304214	62.5657425476995	-13.1911337550093	-67.2392401371452
2530000000	-12.5744595347447	-36.3515442216883	-0.496380885888504	61.3696856564825			-0.836509376457469	62.110904320013	-12.941635342483	-68.2197469861043
2535000000	-12.0926807319701	-34.3686257074568	-0.509859183036327	60.1356993482461			-0.831059668000446	61.2999382742036	-13.2065939543404	-70.7815682736356
2540000000	-12.0303753177841	-31.1569012920708	-0.600164259631526	59.3653889483559			-0.817124300930864	60.5422505575553	-13.6149125195909	-74.3548967380391
2545000000	-12.1450202923732	-28.8639375824309	-0.582782005645598	59.1589654547252			-0.795048274199952	59.5534985025658	-13.7037599036731	-76.6460460295852
2550000000	-12.4409238510708	-28.6462158754056	-0.510350675160717	59.2755593412976			-0.79288497769147	58.7650283541979	-13.4797165450394	-77.9632939471774
2555000000	-12.8069800846955	-30.851675648057	-0.432536728616963	58.2961357285449			-0.831363707849742	58.2340159960905	-13.087097545022	-78.4390289579344
2560000000	-12.8317638220852	-33.7775076445704	-0.360776054911086	57.4575696281647			-0.826833717867843	57.876443777197	-12.7174379545297	-78.2762465038981
2565000000	-12.764337853273	-35.4763583050952	-0.390050444811012	56.1240528885638			-0.750487907274897	57.6322833600092	-12.649507206041	-80.2225484728875
2570000000	-12.7302815989926	-36.1589397288631	-0.460613911761859	55.1921159188334			-0.705100700010548	57.0232931161967	-12.9252662116811	-84.220691229436
2575000000	-12.8115777044326	-36.5923529171979	-0.474971483131816	55.1033394220711			-0.681655062735987	56.0936344266022	-12.9419016289883	-86.8607776896505
2580000000	-12.9867359468414	-39.0894716716003	-0.402394834920544	55.0466549403095			-0.722202678859069	55.2608984412252	-12.6682445430822	-88.3033153387206
2585000000	-12.980593495308	-43.0435767063226	-0.29575904057068	54.6903180472647			-0.744365749496839	54.9425861268284	-12.2211736992589	-87.9573715444084
2590000000	-12.5241161655013	-47.1914263593797	-0.209342875011961	53.789048628566			-0.724712555332638	55.0083094520518	-11.7661109571573	-87.1733764791763
2595000000	-11.8880578112228	-49.7441876147945	-0.223681410622714	52.1627510102221			-0.65325138004875	54.5769826359628	-11.6586085537126	-88.9028126378566
2600000000	-11.3531875249333	-49.0484950797236	-0.302526690660559	50.9290347396573			-0.612196140207124	54.0522203235691	-11.9922289706945	-92.4816083810635
2605000000	-11.0695044814241	-46.5006965348604	-0.386627773357071	50.5194941882844			-0.586778164159664	52.9589284395767	-12.3320875774791	-97.1065210800355
2610000000	-11.0722369467871	-43.9525136488096	-0.34072394541624	50.5881147866208			-0.610763339353383	52.0558529063811	-12.2234803833497	-101.069020182316
2615000000	-11.393313847767	-43.642604836063	-0.228498997311681	50.3912680563602			-0.674686771389599	51.3546528859976	-11.823806034165	-102.956695381593
2620000000	-11.625886536798	-46.2910504967863	-0.127443758606628	49.3197422818196			-0.645353583396309	51.3919715839386	-11.239822377393	-102.97105973126
2625000000	-11.607957280365	-50.3466457052549	-0.117092132260559	48.3026268908433			-0.541247157405724	51.1729768051641	-10.9195637641713	-102.766537954643
2630000000	-11.4245260623598	-53.1728273816786	-0.201491353738422	47.0353138986463			-0.438184851439563	50.4133433930658	-11.0837092424419	-104.099036990512
2635000000	-11.1810905994088	-53.7409211548211	-0.281947892592067	46.1228262923739			-0.397651956019026	49.3923039409441	-11.3997747036397	-106.360712889444
