<Qucs Dataset 0.0.11>
<indep frequency 100>
  +5.80000000000e+09
  +5.80101010101e+09
  +5.80202020202e+09
  +5.80303030303e+09
  +5.80404040404e+09
  +5.80505050505e+09
  +5.80606060606e+09
  +5.80707070707e+09
  +5.80808080808e+09
  +5.80909090909e+09
  +5.81010101010e+09
  +5.81111111111e+09
  +5.81212121212e+09
  +5.81313131313e+09
  +5.81414141414e+09
  +5.81515151515e+09
  +5.81616161616e+09
  +5.81717171717e+09
  +5.81818181818e+09
  +5.81919191919e+09
  +5.82020202020e+09
  +5.82121212121e+09
  +5.82222222222e+09
  +5.82323232323e+09
  +5.82424242424e+09
  +5.82525252525e+09
  +5.82626262626e+09
  +5.82727272727e+09
  +5.82828282828e+09
  +5.82929292929e+09
  +5.83030303030e+09
  +5.83131313131e+09
  +5.83232323232e+09
  +5.83333333333e+09
  +5.83434343434e+09
  +5.83535353535e+09
  +5.83636363636e+09
  +5.83737373737e+09
  +5.83838383838e+09
  +5.83939393939e+09
  +5.84040404040e+09
  +5.84141414141e+09
  +5.84242424242e+09
  +5.84343434343e+09
  +5.84444444444e+09
  +5.84545454545e+09
  +5.84646464646e+09
  +5.84747474747e+09
  +5.84848484848e+09
  +5.84949494949e+09
  +5.85050505051e+09
  +5.85151515152e+09
  +5.85252525253e+09
  +5.85353535354e+09
  +5.85454545455e+09
  +5.85555555556e+09
  +5.85656565657e+09
  +5.85757575758e+09
  +5.85858585859e+09
  +5.85959595960e+09
  +5.86060606061e+09
  +5.86161616162e+09
  +5.86262626263e+09
  +5.86363636364e+09
  +5.86464646465e+09
  +5.86565656566e+09
  +5.86666666667e+09
  +5.86767676768e+09
  +5.86868686869e+09
  +5.86969696970e+09
  +5.87070707071e+09
  +5.87171717172e+09
  +5.87272727273e+09
  +5.87373737374e+09
  +5.87474747475e+09
  +5.87575757576e+09
  +5.87676767677e+09
  +5.87777777778e+09
  +5.87878787879e+09
  +5.87979797980e+09
  +5.88080808081e+09
  +5.88181818182e+09
  +5.88282828283e+09
  +5.88383838384e+09
  +5.88484848485e+09
  +5.88585858586e+09
  +5.88686868687e+09
  +5.88787878788e+09
  +5.88888888889e+09
  +5.88989898990e+09
  +5.89090909091e+09
  +5.89191919192e+09
  +5.89292929293e+09
  +5.89393939394e+09
  +5.89494949495e+09
  +5.89595959596e+09
  +5.89696969697e+09
  +5.89797979798e+09
  +5.89898989899e+09
  +5.90000000000e+09
</indep>
<dep MAG2 frequency>
  +2.02179524736e-02
  +2.02557058371e-02
  +2.02975667641e-02
  +2.03435094845e-02
  +2.03935060028e-02
  +2.04475261788e-02
  +2.05055378134e-02
  +2.05675067383e-02
  +2.06333969090e-02
  +2.07031705021e-02
  +2.07767880142e-02
  +2.08542083631e-02
  +2.09353889909e-02
  +2.10202859672e-02
  +2.11088540938e-02
  +2.12010470086e-02
  +2.12968172890e-02
  +2.13961165550e-02
  +2.14988955699e-02
  +2.16051043404e-02
  +2.17146922137e-02
  +2.18276079726e-02
  +2.19437999278e-02
  +2.20632160075e-02
  +2.21858038435e-02
  +2.23115108543e-02
  +2.24402843247e-02
  +2.25720714814e-02
  +2.27068195657e-02
  +2.28444759020e-02
  +2.29849879622e-02
  +2.31283034273e-02
  +2.32743702445e-02
  +2.34231366805e-02
  +2.35745513720e-02
  +2.37285633712e-02
  +2.38851221894e-02
  +2.40441778356e-02
  +2.42056808530e-02
  +2.43695823514e-02
  +2.45358340369e-02
  +2.47043882388e-02
  +2.48751979330e-02
  +2.50482167630e-02
  +2.52233990590e-02
  +2.54006998527e-02
  +2.55800748919e-02
  +2.57614806514e-02
  +2.59448743424e-02
  +2.61302139198e-02
  +2.63174580877e-02
  +2.65065663034e-02
  +2.66974987793e-02
  +2.68902164837e-02
  +2.70846811405e-02
  +2.72808552267e-02
  +2.74787019699e-02
  +2.76781853438e-02
  +2.78792700632e-02
  +2.80819215783e-02
  +2.82861060673e-02
  +2.84917904295e-02
  +2.86989422768e-02
  +2.89075299250e-02
  +2.91175223848e-02
  +2.93288893517e-02
  +2.95416011962e-02
  +2.97556289531e-02
  +2.99709443113e-02
  +3.01875196021e-02
  +3.04053277885e-02
  +3.06243424539e-02
  +3.08445377903e-02
  +3.10658885871e-02
  +3.12883702191e-02
  +3.15119586354e-02
  +3.17366303471e-02
  +3.19623624164e-02
  +3.21891324442e-02
  +3.24169185593e-02
  +3.26456994065e-02
  +3.28754541354e-02
  +3.31061623891e-02
  +3.33378042931e-02
  +3.35703604444e-02
  +3.38038119005e-02
  +3.40381401685e-02
  +3.42733271952e-02
  +3.45093553560e-02
  +3.47462074450e-02
  +3.49838666651e-02
  +3.52223166178e-02
  +3.54615412939e-02
  +3.57015250636e-02
  +3.59422526676e-02
  +3.61837092078e-02
  +3.64258801381e-02
  +3.66687512561e-02
  +3.69123086943e-02
  +3.71565389118e-02
</dep>
<dep MAG1 frequency>
  +2.27289536370e-02
  +2.27483074307e-02
  +2.27710748695e-02
  +2.27972450230e-02
  +2.28268054886e-02
  +2.28597424188e-02
  +2.28960405505e-02
  +2.29356832383e-02
  +2.29786524889e-02
  +2.30249289994e-02
  +2.30744921968e-02
  +2.31273202803e-02
  +2.31833902651e-02
  +2.32426780280e-02
  +2.33051583546e-02
  +2.33708049876e-02
  +2.34395906765e-02
  +2.35114872276e-02
  +2.35864655558e-02
  +2.36644957354e-02
  +2.37455470525e-02
  +2.38295880568e-02
  +2.39165866139e-02
  +2.40065099566e-02
  +2.40993247368e-02
  +2.41949970759e-02
  +2.42934926155e-02
  +2.43947765663e-02
  +2.44988137570e-02
  +2.46055686816e-02
  +2.47150055457e-02
  +2.48270883116e-02
  +2.49417807423e-02
  +2.50590464437e-02
  +2.51788489059e-02
  +2.53011515425e-02
  +2.54259177288e-02
  +2.55531108381e-02
  +2.56826942769e-02
  +2.58146315179e-02
  +2.59488861321e-02
  +2.60854218184e-02
  +2.62242024327e-02
  +2.63651920145e-02
  +2.65083548124e-02
  +2.66536553081e-02
  +2.68010582385e-02
  +2.69505286166e-02
  +2.71020317509e-02
  +2.72555332638e-02
  +2.74109991073e-02
  +2.75683955792e-02
  +2.77276893366e-02
  +2.78888474088e-02
  +2.80518372086e-02
  +2.82166265429e-02
  +2.83831836220e-02
  +2.85514770678e-02
  +2.87214759207e-02
  +2.88931496463e-02
  +2.90664681404e-02
  +2.92414017336e-02
  +2.94179211948e-02
  +2.95959977341e-02
  +2.97756030051e-02
  +2.99567091060e-02
  +3.01392885806e-02
  +3.03233144182e-02
  +3.05087600535e-02
  +3.06955993656e-02
  +3.08838066761e-02
  +3.10733567479e-02
  +3.12642247824e-02
  +3.14563864167e-02
  +3.16498177208e-02
  +3.18444951941e-02
  +3.20403957614e-02
  +3.22374967693e-02
  +3.24357759816e-02
  +3.26352115748e-02
  +3.28357821336e-02
  +3.30374666458e-02
  +3.32402444974e-02
  +3.34440954673e-02
  +3.36489997219e-02
  +3.38549378097e-02
  +3.40618906558e-02
  +3.42698395565e-02
  +3.44787661729e-02
  +3.46886525261e-02
  +3.48994809906e-02
  +3.51112342890e-02
  +3.53238954861e-02
  +3.55374479828e-02
  +3.57518755104e-02
  +3.59671621252e-02
  +3.61832922019e-02
  +3.64002504284e-02
  +3.66180217998e-02
  +3.68365916131e-02
</dep>
<dep S[1,1] frequency>
  -2.26907264673e-02-j1.31767439711e-03
  -2.26963224053e-02-j1.53702317256e-03
  -2.27032414026e-02-j1.75632586027e-03
  -2.27114833521e-02-j1.97557702693e-03
  -2.27210481278e-02-j2.19477123877e-03
  -2.27319355855e-02-j2.41390306162e-03
  -2.27441455620e-02-j2.63296706099e-03
  -2.27576778759e-02-j2.85195780207e-03
  -2.27725323267e-02-j3.07086984981e-03
  -2.27887086956e-02-j3.28969776898e-03
  -2.28062067451e-02-j3.50843612421e-03
  -2.28250262190e-02-j3.72707948004e-03
  -2.28451668423e-02-j3.94562240097e-03
  -2.28666283216e-02-j4.16405945154e-03
  -2.28894103446e-02-j4.38238519634e-03
  -2.29135125804e-02-j4.60059420010e-03
  -2.29389346796e-02-j4.81868102770e-03
  -2.29656762736e-02-j5.03664024429e-03
  -2.29937369757e-02-j5.25446641525e-03
  -2.30231163800e-02-j5.47215410635e-03
  -2.30538140622e-02-j5.68969788369e-03
  -2.30858295791e-02-j5.90709231386e-03
  -2.31191624687e-02-j6.12433196392e-03
  -2.31538122506e-02-j6.34141140146e-03
  -2.31897784252e-02-j6.55832519471e-03
  -2.32270604745e-02-j6.77506791251e-03
  -2.32656578615e-02-j6.99163412443e-03
  -2.33055700307e-02-j7.20801840081e-03
  -2.33467964075e-02-j7.42421531277e-03
  -2.33893363987e-02-j7.64021943232e-03
  -2.34331893924e-02-j7.85602533238e-03
  -2.34783547578e-02-j8.07162758687e-03
  -2.35248318452e-02-j8.28702077069e-03
  -2.35726199862e-02-j8.50219945987e-03
  -2.36217184937e-02-j8.71715823154e-03
  -2.36721266615e-02-j8.93189166405e-03
  -2.37238437650e-02-j9.14639433697e-03
  -2.37768690603e-02-j9.36066083119e-03
  -2.38312017849e-02-j9.57468572892e-03
  -2.38868411576e-02-j9.78846361383e-03
  -2.39437863781e-02-j1.00019890710e-02
  -2.40020366273e-02-j1.02152566871e-02
  -2.40615910675e-02-j1.04282610502e-02
  -2.41224488417e-02-j1.06409967502e-02
  -2.41846090744e-02-j1.08534583787e-02
  -2.42480708712e-02-j1.10656405287e-02
  -2.43128333185e-02-j1.12775377955e-02
  -2.43788954843e-02-j1.14891447757e-02
  -2.44462564173e-02-j1.17004560683e-02
  -2.45149151476e-02-j1.19114662740e-02
  -2.45848706863e-02-j1.21221699955e-02
  -2.46561220255e-02-j1.23325618375e-02
  -2.47286681385e-02-j1.25426364072e-02
  -2.48025079799e-02-j1.27523883136e-02
  -2.48776404849e-02-j1.29618121680e-02
  -2.49540645703e-02-j1.31709025841e-02
  -2.50317791337e-02-j1.33796541779e-02
  -2.51107830539e-02-j1.35880615679e-02
  -2.51910751906e-02-j1.37961193749e-02
  -2.52726543848e-02-j1.40038222222e-02
  -2.53555194585e-02-j1.42111647359e-02
  -2.54396692146e-02-j1.44181415445e-02
  -2.55251024374e-02-j1.46247472793e-02
  -2.56118178919e-02-j1.48309765743e-02
  -2.56998143245e-02-j1.50368240664e-02
  -2.57890904624e-02-j1.52422843953e-02
  -2.58796450139e-02-j1.54473522034e-02
  -2.59714766685e-02-j1.56520221364e-02
  -2.60645840967e-02-j1.58562888430e-02
  -2.61589659498e-02-j1.60601469746e-02
  -2.62546208606e-02-j1.62635911863e-02
  -2.63515474425e-02-j1.64666161360e-02
  -2.64497442902e-02-j1.66692164850e-02
  -2.65492099795e-02-j1.68713868980e-02
  -2.66499430670e-02-j1.70731220427e-02
  -2.67519420905e-02-j1.72744165908e-02
  -2.68552055687e-02-j1.74752652171e-02
  -2.69597320017e-02-j1.76756626000e-02
  -2.70655198701e-02-j1.78756034216e-02
  -2.71725676360e-02-j1.80750823677e-02
  -2.72808737423e-02-j1.82740941275e-02
  -2.73904366129e-02-j1.84726333945e-02
  -2.75012546529e-02-j1.86706948655e-02
  -2.76133262484e-02-j1.88682732417e-02
  -2.77266497664e-02-j1.90653632279e-02
  -2.78412235550e-02-j1.92619595331e-02
  -2.79570459435e-02-j1.94580568702e-02
  -2.80741152419e-02-j1.96536499564e-02
  -2.81924297416e-02-j1.98487335131e-02
  -2.83119877147e-02-j2.00433022658e-02
  -2.84327874146e-02-j2.02373509445e-02
  -2.85548270756e-02-j2.04308742834e-02
  -2.86781049130e-02-j2.06238670213e-02
  -2.88026191234e-02-j2.08163239012e-02
  -2.89283678841e-02-j2.10082396711e-02
  -2.90553493536e-02-j2.11996090832e-02
  -2.91835616715e-02-j2.13904268945e-02
  -2.93130029584e-02-j2.15806878669e-02
  -2.94436713158e-02-j2.17703867669e-02
  -2.95755648265e-02-j2.19595183658e-02
</dep>
<dep S[1,2] frequency>
  +2.13677011501e-02+j1.26078889371e-03
  +2.13813394874e-02+j1.47175314155e-03
  +2.13963855849e-02+j1.68262214899e-03
  +2.14128389107e-02+j1.89338925158e-03
  +2.14306989042e-02+j2.10404778769e-03
  +2.14499649761e-02+j2.31459109853e-03
  +2.14706365085e-02+j2.52501252830e-03
  +2.14927128551e-02+j2.73530542436e-03
  +2.15161933408e-02+j2.94546313726e-03
  +2.15410772621e-02+j3.15547902094e-03
  +2.15673638869e-02+j3.36534643280e-03
  +2.15950524546e-02+j3.57505873383e-03
  +2.16241421761e-02+j3.78460928875e-03
  +2.16546322339e-02+j3.99399146609e-03
  +2.16865217818e-02+j4.20319863834e-03
  +2.17198099455e-02+j4.41222418206e-03
  +2.17544958219e-02+j4.62106147800e-03
  +2.17905784799e-02+j4.82970391121e-03
  +2.18280569597e-02+j5.03814487118e-03
  +2.18669302732e-02+j5.24637775190e-03
  +2.19071974040e-02+j5.45439595207e-03
  +2.19488573075e-02+j5.66219287514e-03
  +2.19919089107e-02+j5.86976192947e-03
  +2.20363511122e-02+j6.07709652842e-03
  +2.20821827826e-02+j6.28419009048e-03
  +2.21294027641e-02+j6.49103603940e-03
  +2.21780098708e-02+j6.69762780431e-03
  +2.22280028885e-02+j6.90395881978e-03
  +2.22793805750e-02+j7.11002252603e-03
  +2.23321416600e-02+j7.31581236896e-03
  +2.23862848449e-02+j7.52132180033e-03
  +2.24418088031e-02+j7.72654427783e-03
  +2.24987121802e-02+j7.93147326523e-03
  +2.25569935935e-02+j8.13610223248e-03
  +2.26166516325e-02+j8.34042465585e-03
  +2.26776848586e-02+j8.54443401799e-03
  +2.27400918053e-02+j8.74812380811e-03
  +2.28038709783e-02+j8.95148752207e-03
  +2.28690208554e-02+j9.15451866248e-03
  +2.29355398865e-02+j9.35721073884e-03
  +2.30034264938e-02+j9.55955726765e-03
  +2.30726790717e-02+j9.76155177250e-03
  +2.31432959868e-02+j9.96318778423e-03
  +2.32152755780e-02+j1.01644588410e-02
  +2.32886161567e-02+j1.03653584885e-02
  +2.33633160064e-02+j1.05658802798e-02
  +2.34393733831e-02+j1.07660177760e-02
  +2.35167865154e-02+j1.09657645455e-02
  +2.35955536041e-02+j1.11651141652e-02
  +2.36756728228e-02+j1.13640602195e-02
  +2.37571423172e-02+j1.15625963013e-02
  +2.38399602060e-02+j1.17607160116e-02
  +2.39241245804e-02+j1.19584129598e-02
  +2.40096335041e-02+j1.21556807637e-02
  +2.40964850137e-02+j1.23525130499e-02
  +2.41846771183e-02+j1.25489034535e-02
  +2.42742077999e-02+j1.27448456186e-02
  +2.43650750133e-02+j1.29403331981e-02
  +2.44572766862e-02+j1.31353598539e-02
  +2.45508107191e-02+j1.33299192574e-02
  +2.46456749853e-02+j1.35240050887e-02
  +2.47418673314e-02+j1.37176110379e-02
  +2.48393855767e-02+j1.39107308042e-02
  +2.49382275137e-02+j1.41033580964e-02
  +2.50383909080e-02+j1.42954866333e-02
  +2.51398734983e-02+j1.44871101433e-02
  +2.52426729963e-02+j1.46782223648e-02
  +2.53467870874e-02+j1.48688170462e-02
  +2.54522134298e-02+j1.50588879463e-02
  +2.55589496551e-02+j1.52484288338e-02
  +2.56669933686e-02+j1.54374334881e-02
  +2.57763421485e-02+j1.56258956989e-02
  +2.58869935468e-02+j1.58138092666e-02
  +2.59989450890e-02+j1.60011680022e-02
  +2.61121942738e-02+j1.61879657278e-02
  +2.62267385740e-02+j1.63741962761e-02
  +2.63425754356e-02+j1.65598534910e-02
  +2.64597022785e-02+j1.67449312276e-02
  +2.65781164963e-02+j1.69294233520e-02
  +2.66978154565e-02+j1.71133237421e-02
  +2.68187965001e-02+j1.72966262869e-02
  +2.69410569424e-02+j1.74793248870e-02
  +2.70645940724e-02+j1.76614134550e-02
  +2.71894051532e-02+j1.78428859150e-02
  +2.73154874217e-02+j1.80237362031e-02
  +2.74428380892e-02+j1.82039582674e-02
  +2.75714543411e-02+j1.83835460682e-02
  +2.77013333367e-02+j1.85624935778e-02
  +2.78324722100e-02+j1.87407947811e-02
  +2.79648680689e-02+j1.89184436753e-02
  +2.80985179959e-02+j1.90954342702e-02
  +2.82334190478e-02+j1.92717605881e-02
  +2.83695682560e-02+j1.94474166643e-02
  +2.85069626263e-02+j1.96223965466e-02
  +2.86455991390e-02+j1.97966942962e-02
  +2.87854747494e-02+j1.99703039871e-02
  +2.89265863870e-02+j2.01432197065e-02
  +2.90689309565e-02+j2.03154355548e-02
  +2.92125053370e-02+j2.04869456460e-02
  +2.93573063829e-02+j2.06577441074e-02
</dep>
<dep S[2,1] frequency>
  +2.13677011501e-02+j1.26078889371e-03
  +2.13813394874e-02+j1.47175314155e-03
  +2.13963855849e-02+j1.68262214899e-03
  +2.14128389107e-02+j1.89338925158e-03
  +2.14306989042e-02+j2.10404778769e-03
  +2.14499649761e-02+j2.31459109853e-03
  +2.14706365085e-02+j2.52501252830e-03
  +2.14927128551e-02+j2.73530542436e-03
  +2.15161933408e-02+j2.94546313726e-03
  +2.15410772621e-02+j3.15547902094e-03
  +2.15673638869e-02+j3.36534643280e-03
  +2.15950524546e-02+j3.57505873383e-03
  +2.16241421761e-02+j3.78460928875e-03
  +2.16546322339e-02+j3.99399146609e-03
  +2.16865217818e-02+j4.20319863834e-03
  +2.17198099455e-02+j4.41222418206e-03
  +2.17544958219e-02+j4.62106147800e-03
  +2.17905784799e-02+j4.82970391121e-03
  +2.18280569597e-02+j5.03814487118e-03
  +2.18669302732e-02+j5.24637775190e-03
  +2.19071974040e-02+j5.45439595207e-03
  +2.19488573075e-02+j5.66219287514e-03
  +2.19919089107e-02+j5.86976192947e-03
  +2.20363511122e-02+j6.07709652842e-03
  +2.20821827826e-02+j6.28419009048e-03
  +2.21294027641e-02+j6.49103603940e-03
  +2.21780098708e-02+j6.69762780431e-03
  +2.22280028885e-02+j6.90395881978e-03
  +2.22793805750e-02+j7.11002252603e-03
  +2.23321416600e-02+j7.31581236896e-03
  +2.23862848449e-02+j7.52132180033e-03
  +2.24418088031e-02+j7.72654427783e-03
  +2.24987121802e-02+j7.93147326523e-03
  +2.25569935935e-02+j8.13610223248e-03
  +2.26166516325e-02+j8.34042465585e-03
  +2.26776848586e-02+j8.54443401799e-03
  +2.27400918053e-02+j8.74812380811e-03
  +2.28038709783e-02+j8.95148752207e-03
  +2.28690208554e-02+j9.15451866248e-03
  +2.29355398865e-02+j9.35721073884e-03
  +2.30034264938e-02+j9.55955726765e-03
  +2.30726790717e-02+j9.76155177250e-03
  +2.31432959868e-02+j9.96318778423e-03
  +2.32152755780e-02+j1.01644588410e-02
  +2.32886161567e-02+j1.03653584885e-02
  +2.33633160064e-02+j1.05658802798e-02
  +2.34393733831e-02+j1.07660177760e-02
  +2.35167865154e-02+j1.09657645455e-02
  +2.35955536041e-02+j1.11651141652e-02
  +2.36756728228e-02+j1.13640602195e-02
  +2.37571423172e-02+j1.15625963013e-02
  +2.38399602060e-02+j1.17607160116e-02
  +2.39241245804e-02+j1.19584129598e-02
  +2.40096335041e-02+j1.21556807637e-02
  +2.40964850137e-02+j1.23525130499e-02
  +2.41846771183e-02+j1.25489034535e-02
  +2.42742077999e-02+j1.27448456186e-02
  +2.43650750133e-02+j1.29403331981e-02
  +2.44572766862e-02+j1.31353598539e-02
  +2.45508107191e-02+j1.33299192574e-02
  +2.46456749853e-02+j1.35240050887e-02
  +2.47418673314e-02+j1.37176110379e-02
  +2.48393855767e-02+j1.39107308042e-02
  +2.49382275137e-02+j1.41033580964e-02
  +2.50383909080e-02+j1.42954866333e-02
  +2.51398734983e-02+j1.44871101433e-02
  +2.52426729963e-02+j1.46782223648e-02
  +2.53467870874e-02+j1.48688170462e-02
  +2.54522134298e-02+j1.50588879463e-02
  +2.55589496551e-02+j1.52484288338e-02
  +2.56669933686e-02+j1.54374334881e-02
  +2.57763421485e-02+j1.56258956989e-02
  +2.58869935468e-02+j1.58138092666e-02
  +2.59989450890e-02+j1.60011680022e-02
  +2.61121942738e-02+j1.61879657278e-02
  +2.62267385740e-02+j1.63741962761e-02
  +2.63425754356e-02+j1.65598534910e-02
  +2.64597022785e-02+j1.67449312276e-02
  +2.65781164963e-02+j1.69294233520e-02
  +2.66978154565e-02+j1.71133237421e-02
  +2.68187965001e-02+j1.72966262869e-02
  +2.69410569424e-02+j1.74793248870e-02
  +2.70645940724e-02+j1.76614134550e-02
  +2.71894051532e-02+j1.78428859150e-02
  +2.73154874217e-02+j1.80237362031e-02
  +2.74428380892e-02+j1.82039582674e-02
  +2.75714543411e-02+j1.83835460682e-02
  +2.77013333367e-02+j1.85624935778e-02
  +2.78324722100e-02+j1.87407947811e-02
  +2.79648680689e-02+j1.89184436753e-02
  +2.80985179959e-02+j1.90954342702e-02
  +2.82334190478e-02+j1.92717605881e-02
  +2.83695682560e-02+j1.94474166643e-02
  +2.85069626263e-02+j1.96223965466e-02
  +2.86455991390e-02+j1.97966942962e-02
  +2.87854747494e-02+j1.99703039871e-02
  +2.89265863870e-02+j2.01432197065e-02
  +2.90689309565e-02+j2.03154355548e-02
  +2.92125053370e-02+j2.04869456460e-02
  +2.93573063829e-02+j2.06577441074e-02
</dep>
<dep S[2,2] frequency>
  +2.01603712940e-02+j1.52480540159e-03
  +2.01779753449e-02+j1.77283105211e-03
  +2.01967241804e-02+j2.02077928638e-03
  +2.02166174609e-02+j2.26864642143e-03
  +2.02376548370e-02+j2.51642877570e-03
  +2.02598359496e-02+j2.76412266902e-03
  +2.02831604298e-02+j3.01172442266e-03
  +2.03076278992e-02+j3.25923035933e-03
  +2.03332379697e-02+j3.50663680322e-03
  +2.03599902435e-02+j3.75394007997e-03
  +2.03878843130e-02+j4.00113651674e-03
  +2.04169197612e-02+j4.24822244221e-03
  +2.04470961612e-02+j4.49519418658e-03
  +2.04784130766e-02+j4.74204808161e-03
  +2.05108700613e-02+j4.98878046063e-03
  +2.05444666596e-02+j5.23538765855e-03
  +2.05792024061e-02+j5.48186601189e-03
  +2.06150768258e-02+j5.72821185881e-03
  +2.06520894342e-02+j5.97442153908e-03
  +2.06902397370e-02+j6.22049139415e-03
  +2.07295272304e-02+j6.46641776713e-03
  +2.07699514010e-02+j6.71219700284e-03
  +2.08115117257e-02+j6.95782544781e-03
  +2.08542076719e-02+j7.20329945027e-03
  +2.08980386973e-02+j7.44861536024e-03
  +2.09430042503e-02+j7.69376952947e-03
  +2.09891037694e-02+j7.93875831151e-03
  +2.10363366837e-02+j8.18357806170e-03
  +2.10847024126e-02+j8.42822513719e-03
  +2.11342003661e-02+j8.67269589699e-03
  +2.11848299445e-02+j8.91698670192e-03
  +2.12365905388e-02+j9.16109391470e-03
  +2.12894815301e-02+j9.40501389994e-03
  +2.13435022902e-02+j9.64874302413e-03
  +2.13986521812e-02+j9.89227765569e-03
  +2.14549305560e-02+j1.01356141650e-02
