# Hz S DB R 50
2000000000	-25.4209006108739	15.4319894013628	-1.21968303450173	116.140412912565			-1.15436426744882	115.55704852536	-18.9508608769454	123.19908943118
2005000000	-25.7650702536646	19.7380231356595	-1.17159541626202	115.737076409625			-1.1483834501938	114.646744275214	-18.0808918099721	122.706692132945
2010000000	-25.4561315968935	21.0493467653834	-1.17738932508287	115.107470394448			-1.19088574224585	113.761745020371	-17.6460542136802	125.145881977391
2015000000	-24.9125636683107	19.1504494256468	-1.17114392375809	113.998045035296			-1.26061037944189	113.000638949314	-17.5489684950388	126.650388199432
2020000000	-24.7639603102764	16.6928562038817	-1.23344286337412	113.259758572649			-1.29847408460015	112.668615358509	-18.014174014719	127.603976182029
2025000000	-24.9722429321105	16.5164502967639	-1.25721705641029	112.968358433837			-1.25791418900574	112.302849861633	-18.3653211305746	126.373977684378
2030000000	-25.5398021348641	17.8027665437239	-1.21924914616156	112.682188255699			-1.18629061796327	111.71403293918	-18.5409009366009	121.920447101345
2035000000	-26.0546900693165	21.0035503576497	-1.14807926838827	112.187331042056			-1.15553618557713	110.840596383584	-18.2016983998263	118.478059224758
2040000000	-25.7780912045437	22.9617807838091	-1.11073965972305	111.339247328219			-1.19809099210719	109.937156047956	-17.5514851229975	118.540560640553
2045000000	-25.4328974667441	20.5291774135702	-1.13544898767623	110.354848547108			-1.24634765381221	109.229123346573	-17.3598482328287	118.720790930487
2050000000	-24.8619345628665	15.1522455561024	-1.19131524459749	109.496912605717			-1.30242071679263	108.864517096783	-17.5837502827313	120.628117573827
2055000000	-24.6187089770145	11.3257958713613	-1.26102001917166	109.064695101132			-1.31074185370168	108.390921402096	-18.1580423005798	121.907203698284
2060000000	-24.4279271871769	8.26186056960878	-1.25279896167193	108.686239110637			-1.26785656242561	107.740488488073	-18.9404061439355	119.031402049199
2065000000	-24.5725342761284	7.06537886008448	-1.16330274532216	108.155634513976			-1.23056984055561	106.877401279691	-19.4215215863597	113.605907483471
2070000000	-24.5699008217862	6.68564047630322	-1.12139967821402	107.450627706373			-1.21392554144926	106.204724502522	-19.1567046146198	108.419751797191
2075000000	-24.4087890612655	8.06239249592584	-1.14656814882877	106.425281775303			-1.24007299689851	105.534692018282	-18.8154437488499	104.258072767774
2080000000	-24.093749611869	7.17995087858208	-1.16862442553108	105.718155893873			-1.2739341835343	105.14269728886	-18.6783280287289	104.236365926936
2085000000	-23.7506676329802	6.91277655503586	-1.21458108164363	105.239940095256			-1.27875344931944	104.623984204032	-18.7287468299839	105.854429650603
2090000000	-23.6327785928238	5.98119203540291	-1.19658202447562	104.773292290748			-1.25681930851219	104.134892888779	-19.1668439758415	106.464562903207
2095000000	-23.8468907028031	3.66060834000336	-1.17360686965923	104.156152652783			-1.2646015195685	103.455189557045	-19.8693264725334	105.218701819511
2100000000	-23.8207237835602	2.8549711116475	-1.14566362771952	103.461894337766			-1.28860411741904	102.518514436006	-20.1579528448809	101.117915052056
2105000000	-23.9392006447202	3.52150105718735	-1.16070128177866	102.582323704209			-1.28482298001115	101.857080009152	-20.2634179949728	95.9452315637786
2110000000	-23.7012829206524	4.39775063119032	-1.17362330478752	101.926681217135			-1.29070784285627	101.373248865482	-20.1106393572498	92.094249450532
2115000000	-23.1144691977074	7.25708782093954	-1.17999604771912	101.320516968942			-1.29383455174034	100.8841438714	-19.8482874988072	91.136542160448
2120000000	-22.6524569897131	8.13008356139149	-1.18287707039658	100.870834277708			-1.3026386169348	100.403333377363	-19.8564515047416	91.2191071671593
2125000000	-22.3168659609936	7.06023312240004	-1.14673688315231	100.289000467524			-1.3020782092973	99.8769882902565	-20.0906606532227	91.7955729364171
2130000000	-22.2310083645693	5.95949730108283	-1.17121487163864	99.6564842475369			-1.29361611509839	99.2861135720409	-20.5587034814782	89.7809301143681
2135000000	-22.186416674649	5.51862561686051	-1.17160551050022	98.835351916613			-1.31581104443027	98.5247184583893	-20.8675840691594	85.2263992135833
2140000000	-22.1401048372252	5.10731773080939	-1.19984551069932	97.984502467704			-1.35125786333497	97.6864870134175	-21.0825282259959	77.8982923875624
2145000000	-22.1498213235454	5.48429339596642	-1.20087264589606	97.5026126848066			-1.37015874785288	97.2336743755646	-20.6828984499548	72.8691497387469
2150000000	-21.7664429956225	6.63320981106912	-1.18678979740281	97.0270530674933			-1.36448561171983	96.5045660523382	-20.0793592529046	68.384234052546
2155000000	-21.6669266837374	5.53817744373751	-1.15360397331998	96.5839459251596			-1.35000944377764	96.2071468133349	-19.4668296782112	66.738887846229
2160000000	-21.5860205238588	2.84468073041257	-1.14863254509935	95.8621438607828			-1.3429826738665	95.593196705407	-18.8043924352011	66.343939376212
2165000000	-21.548587468432	-0.466949985273489	-1.1369587623056	95.1990361901996			-1.3481622004365	94.7404291032644	-18.5343957506587	66.946146750283
2170000000	-21.4350251884324	-3.85511832325277	-1.12185298924588	94.4548932391842			-1.3830644047626	93.9827364113909	-18.2388399929902	66.810285409225
2175000000	-21.3435434489933	-5.72543013496414	-1.15974421692928	93.8157583451507			-1.44576653710005	93.3584296765444	-18.161195821499	65.4883885549141
2180000000	-21.1471491710094	-5.7403928907196	-1.18949357241181	93.1491246791342			-1.47375405114336	92.7800910459125	-18.1459185113846	62.095086949606
2185000000	-21.0989979283288	-4.81502970612185	-1.16763186197996	92.3937976639991			-1.43969640621618	92.4048061212858	-17.9767102992713	59.5905733952309
2190000000	-20.9706138181855	-4.58266102734903	-1.15063899400332	92.1279433897626			-1.38221854000322	91.9430671758491	-17.6092663543522	58.9933289821386
2195000000	-20.8356250799256	-4.59099835053983	-1.12694444584309	91.4440002326888			-1.35519289800959	91.1723721368453	-17.3596040094275	59.2056858338276
2200000000	-20.7783069780781	-6.31006561823829	-1.12038994749672	90.6339588311773			-1.39519292438535	90.3883463927539	-17.2226544709222	60.390175653855
2205000000	-20.7682391093661	-8.20726182271304	-1.13387395452795	89.8951015704429			-1.45202853210687	89.7405031350339	-17.1757635465243	62.0241888109197
2210000000	-20.8487620303636	-6.62890332792991	-1.1538424033877	89.3582117815941			-1.47455191003265	89.4835326581317	-17.6121637526914	62.6194155571069
2215000000	-20.9397315098963	-4.6322324346779	-1.18525199922529	88.8575419402111			-1.45689030407336	89.1325178282306	-18.2332882313711	61.8347317926609
2220000000	-20.87896337087	-2.29847878622957	-1.19264368300454	88.3612386745364			-1.38715630667139	88.5998409874322	-18.7163459325692	59.1245849638006
2225000000	-20.7087852057234	-0.436148488231833	-1.16023612572822	87.7901057505587			-1.34210722763574	87.6869166057308	-18.8885214495511	55.5438724047832
2230000000	-20.7087913392094	0.450486323023213	-1.1248320697521	86.9821601580439			-1.32844457089036	86.8811966506836	-18.8765245850315	52.3590653809529
2235000000	-20.6803540003434	-1.32228380351426	-1.14487801158172	86.1528650944904			-1.37327776539408	86.3241497093362	-18.6078458330343	50.4561875158293
2240000000	-20.6876197564136	-1.53773214605816	-1.17963137744591	85.3097768409363			-1.42094794521182	86.0377466626843	-18.6955177930107	48.050452915762
2245000000	-20.9455184356971	-0.101187181114136	-1.21860964891234	84.9805362547535			-1.40589381419034	85.6933757093795	-19.0886065974029	46.8166845076368
2250000000	-20.9554079876027	2.2077463639228	-1.22590840825377	84.5924003134872			-1.36080946399197	85.1900494774941	-19.3826110766488	44.623352499486
2255000000	-20.8262125769739	3.56808529287414	-1.17487596800647	84.1299937383029			-1.3384478927886	84.3184507660493	-19.582978593684	41.4193851402677
2260000000	-20.7519357423756	4.75304560321098	-1.16105678961697	83.2316559033347			-1.33952137759492	83.4123777537185	-19.4448582383989	36.5342165866443
2265000000	-20.6835513227903	2.48989210508587	-1.16133553960288	82.3486549135773			-1.38093031133084	82.6327848942247	-18.8079404709473	32.907338742864
2270000000	-20.5730081968286	0.631615271031841	-1.21778997549008	81.6073983741803			-1.405525722436	82.322121444113	-18.4332335828899	29.7087770120016
2275000000	-20.5573673337866	0.977578530351109	-1.24487612525653	81.1873214161978			-1.40451490519623	82.0810286554688	-18.1949028994634	29.122376201848
2280000000	-20.3706421408789	-0.12932404432128	-1.2165963791388	80.8055247634619			-1.37140088024069	81.7269090947725	-17.9859668205295	29.1932818410943
2285000000	-20.2973840653829	-0.659309905374854	-1.1529401671928	80.1850140704782			-1.33869731904274	80.9052665436993	-17.9149999377629	28.7126922243435
2290000000	-20.1057343357669	-1.07778258457773	-1.14914697283958	79.1998460988591			-1.35334439472324	80.0065800990419	-18.0900544220198	27.6918286687879
2295000000	-20.0958571779844	-3.17252546518163	-1.17020420593771	78.4133054023409			-1.38550444570744	79.2317314290852	-18.000838989271	25.6339209564707
2300000000	-19.9896677432134	-5.9777030917041	-1.22347038169635	77.4968394560965			-1.45680214967319	78.7343211013695	-17.987931246197	22.0573236534322
2305000000	-19.7395237600922	-6.82498386276069	-1.26498942865425	77.1561907715885			-1.44234096985503	78.3300068765794	-17.9495345618923	19.5193144145031
2310000000	-19.7557244076473	-7.53980101885966	-1.26331284089524	76.7423126312459			-1.392534382576	77.8621410762092	-17.7308813588256	17.6897534913695
2315000000	-19.7273193570491	-8.7313202444954	-1.2193321403713	76.0933882573425			-1.35002080682969	77.1715404375779	-17.529631213498	17.0594968680101
2320000000	-19.8782280218005	-8.39834909837094	-1.20195364614181	75.4387218687715			-1.35602642057189	76.4081666581135	-17.5615857703824	16.9710405900216
2325000000	-20.0927834889935	-9.13315407879742	-1.19878014278976	74.56573950859			-1.40883711089842	75.7886859007527	-17.6861250148077	15.7347017109033
2330000000	-20.3168223058389	-10.5392847549747	-1.26980237696291	73.8365263920959			-1.45502273813812	75.3712991114906	-17.9076766687785	13.5550999026942
2335000000	-20.1763970167913	-10.0921674306217	-1.28342753373411	73.4999356510518			-1.46866869764433	75.0789669194368	-18.1739961704201	10.9628431599335
2340000000	-20.0225664619666	-11.2350467837951	-1.30888244178726	73.0154158947119			-1.45241395897234	74.3652645935581	-18.1699426433719	7.56839479436535
2345000000	-19.9574855033502	-12.7494320128289	-1.28828658347456	72.3401023002519			-1.39275346460872	73.8643226740004	-17.7857030826965	5.51982801842612
2350000000	-19.9052007671441	-13.7472506975761	-1.24915309186143	71.6790503063271			-1.40558460533538	72.9442548264543	-17.3953212525003	4.91725978679129
2355000000	-20.1022754310558	-14.0368183423197	-1.27865115506284	70.9236289493007			-1.43315970592658	72.3768815974269	-17.1906690343918	4.64142754612721
2360000000	-20.2645789140685	-14.3298864257427	-1.31425248113296	70.3413086574454			-1.44820816546796	71.9318276775588	-17.2596302887556	4.8425071374912
2365000000	-19.988781494127	-14.1706209172833	-1.31518358725284	69.7517271846704			-1.46580854711997	71.4367337015221	-17.5256499406757	3.58711436669023
2370000000	-19.7850618103999	-14.3416511888773	-1.31328223751474	69.458479076858			-1.46678750495744	70.8042808900597	-17.7155317628936	1.36014183490697
2375000000	-19.5190179408766	-15.6453815700641	-1.30191263585788	68.9040597160088			-1.42695050898565	70.1097187956586	-17.7450465138125	-1.45162300748082
2380000000	-19.3723609656238	-17.7833446637747	-1.30487927815391	68.1457301361391			-1.43808489775711	69.4214885270586	-17.6191056283952	-3.81635619224558
2385000000	-19.2666828924192	-20.4082257560376	-1.31833475807414	67.5081862886557			-1.44250953551817	68.5441746394693	-17.4082233476235	-5.67552611647297
2390000000	-19.1708921346237	-22.5235609931602	-1.33652542613944	66.9229822673593			-1.42155027864182	68.1051410133358	-17.2083872791708	-5.63542244918829
2395000000	-18.9235858087292	-23.4043037232143	-1.34586739823186	66.429271989437			-1.44921486446407	67.7121222571768	-17.2580030203781	-6.02141626007676
2400000000	-18.547816203113	-23.1145996688411	-1.36843707397599	65.7953453957576			-1.45220892498951	67.1892591975409	-17.6073331961776	-8.73550186340737
2405000000	-18.2312956984968	-22.7011561842285	-1.37136365412612	65.4243830223867			-1.45176477712992	66.8243318620035	-17.7715299176672	-12.5474219815882
2410000000	-17.9784920173117	-22.3371813323345	-1.36293636080871	64.8151808443102			-1.44405393604983	66.1052595275686	-17.6544054119856	-16.888042563455
2415000000	-17.9263423659865	-22.137619157518	-1.374886863111	64.3189034307755			-1.42276398095777	65.2967063481025	-17.3786036236552	-20.6367076807228
2420000000	-18.0355356216167	-22.797306217517	-1.38044211124154	63.7367387819327			-1.39506635832327	64.5218712212529	-16.91603890959	-22.406946908272
2425000000	-18.1188596212154	-23.4847702177345	-1.38031264004041	63.0421481704996			-1.41732802834457	63.8285385063497	-16.6744996205936	-22.0724228913975
2430000000	-18.0929077677767	-23.4730851551958	-1.4114770212922	62.5592209612293			-1.44270181197125	63.282891059787	-16.5939016088338	-22.3903342641094
2435000000	-17.9885739072623	-22.9619744122001	-1.41581360924824	62.1685004076638			-1.45514850726661	63.0910595783431	-16.536133640088	-22.7347876560577
2440000000	-17.827683503989	-23.1357829438156	-1.40986497337378	61.54969531276			-1.46356121071208	62.8178392631555	-16.4218639491065	-24.3212780293569
2445000000	-17.5715297738326	-23.76022147603	-1.39593959765253	61.0825765339812			-1.44365673477217	62.3463411464249	-16.1130893500983	-25.8452104715686
2450000000	-17.493954414749	-25.5052526538392	-1.39483190819084	60.4129898943202			-1.40637547757293	61.4219425110359	-15.6853829079843	-27.3158571357179
2455000000	-17.486057910456	-28.0125929851731	-1.41782633583805	59.5944802139771			-1.41019944906485	60.6109806555471	-15.4138408870936	-26.891975163678
2460000000	-17.4848212299338	-28.6303967516721	-1.4275794158803	59.0131256469709			-1.4596854090011	59.9087376918059	-15.3918722992498	-26.1758036918982
2465000000	-17.446668676611	-28.2157654756641	-1.45340798812693	58.5236649944779			-1.49028721244891	59.4596325555045	-15.6429539960669	-25.4818849376488
2470000000	-17.2010179927766	-26.9503310333727	-1.42949624216562	58.0350910004959			-1.47958567088867	59.3429970793548	-15.8634483300649	-25.2511318648761
2475000000	-17.0868581316062	-26.911075499874	-1.3854354753782	57.3635614560872			-1.42389251349275	58.9041382758874	-15.9997891420767	-27.0554879001207
2480000000	-17.0907125536381	-28.0046871289751	-1.38589654181983	56.7578287988353			-1.38285319257819	57.994853577146	-16.0163591681166	-29.6024070677474
2485000000	-17.2168440786844	-30.3518321161114	-1.39424154281224	56.0876131255202			-1.38022634942131	56.9996454616593	-15.8588181394927	-31.1377852427421
2490000000	-17.2584154157991	-32.7974888421846	-1.41165970102473	55.5895223240634			-1.45458958133183	56.0733918994616	-15.7879599655926	-31.8376099720919
2495000000	-17.2148117832723	-32.9975761602148	-1.43987052376757	55.1085165264776			-1.48080116941182	55.740498511641	-15.9258345509203	-32.0414351889055
2500000000	-17.0236794539613	-33.3594942543148	-1.40535489660367	54.5193899970316			-1.45789608124048	55.6773243481524	-16.1336272830976	-32.3611190215778
2505000000	-16.7589844440779	-33.891866120826	-1.35896630064237	53.9433569941635			-1.37425166725836	55.3353378380422	-16.4028513211893	-34.9165659769948
2510000000	-16.7108123348958	-34.8132388585271	-1.36683140458592	53.3183243567611			-1.31281276692062	54.3313638435355	-16.5960599438984	-39.3481509585019
2515000000	-16.8083374324965	-35.9207387208713	-1.39987662050329	52.8842676176981			-1.31258365478253	53.3190116375716	-16.5235443656848	-43.1830526175906
2520000000	-16.8550723304454	-37.9464047367059	-1.40102752872337	52.3722530896063			-1.41708070928553	52.5381365520253	-16.2760273449647	-46.4470610308005
2525000000	-16.8486858757794	-38.0658295768627	-1.42317221631497	52.1985372347224			-1.50602027668502	52.063931090278	-15.8847019667296	-47.5430033358902
2530000000	-16.669854245428	-37.1773715012533	-1.40836708545235	51.66501278758			-1.48988809670731	52.203550850694	-15.5052663047255	-46.6427789828319
2535000000	-16.4908084279975	-37.5826846086607	-1.34190405613004	50.7561191583162			-1.42359662587072	51.9867908784516	-15.3171183863601	-46.3344644517409
2540000000	-16.5309792182525	-38.4435242569414	-1.3370519987034	49.6579419574823			-1.31683068121512	51.0485601624414	-15.3693874289574	-47.7956189682188
2545000000	-16.6945576157546	-39.4531941193736	-1.37805865913877	49.1124032434361			-1.26816825035354	49.8534812308415	-15.5281313799889	-48.8374122581319
2550000000	-16.8331813608922	-41.2698726711888	-1.40586182533386	48.8022026109122			-1.33731786410318	49.0815961837075	-15.6365172225997	-49.793656667508
2555000000	-16.8318594000778	-42.8836735010664	-1.36868945774095	48.6294034879552			-1.43990303991037	48.6896812558031	-15.6143755736868	-51.1018165941962
2560000000	-16.566737539181	-43.2216944688026	-1.35550052933053	48.3460938020752			-1.43732703518816	48.9124575968986	-15.2518847471479	-51.3815007333032
2565000000	-16.3896560059244	-44.2893188862892	-1.33032834653889	47.304596793808			-1.35432770734092	48.7164355199787	-14.9586809562694	-52.269028351739
2570000000	-16.4113734103768	-45.1991542872484	-1.32496087926051	46.4894540717335			-1.27242552340215	47.7318280387665	-14.8502925220895	-53.0197115315802
2575000000	-16.6375586782129	-44.7869601973171	-1.34873947110686	45.7876294395263			-1.23692686722822	46.4477045488979	-14.8628308078477	-53.8610069832217
2580000000	-16.9426920764006	-44.912299310881	-1.35457224949531	45.3734116848172			-1.30222672395793	45.5360506537838	-15.0211399946352	-54.232309463186
2585000000	-16.9837006842873	-45.790084550396	-1.31641282606276	45.1792239458069			-1.36055094512142	45.2803223371708	-15.1675626355186	-55.4031765062365
2590000000	-16.7318829941025	-46.9818279746119	-1.26674074513523	44.686936802968			-1.36443443262801	45.2619123232824	-15.1027194677446	-57.5375258063726
2595000000	-16.3137199163672	-49.8312425286456	-1.23223720510207	44.1777378846864			-1.26762797282973	45.2474242189273	-14.924316520775	-59.8308449856171
2600000000	-16.1514676234473	-52.0065408062553	-1.21324678598548	43.1896231787405			-1.19769020511865	44.5229688905154	-14.8137131698304	-62.6291540222589
2605000000	-16.1142837346831	-53.7564718411817	-1.24825531893197	42.6480804101093			-1.14110500227538	43.1992391190028	-14.711075881622	-64.057695209597
2610000000	-16.173782776656	-54.9188604173361	-1.28915761144287	42.2027103155961			-1.18873003964306	42.2848288323618	-14.7316162965941	-64.4603107758707
2615000000	-16.1991646992901	-56.7175680332171	-1.23962186375395	41.6562524626024			-1.26047778051122	41.8609987104672	-14.8017357436971	-65.5880725383813
2620000000	-15.9249103520644	-57.9420406775259	-1.1790231365587	41.3996238377381			-1.24215974898669	41.7907988781879	-14.6596915204142	-67.6614439736571
2625000000	-15.6701583872249	-59.3351210092229	-1.18012251899184	40.6031020099911			-1.17290544373966	41.6715441172478	-14.5779655462297	-70.34436283675
2630000000	-15.7014079716709	-61.2612287141953	-1.14669115127298	39.5527912056213			-1.10370978325626	40.7896566344972	-14.4192917836333	-73.8535600642188
2635000000	-15.8490755101843	-62.2131816396637	-1.17417535161919	39.0328795805781			-1.07942382022245	39.4398588162946	-14.2203667692148	-75.7389512498168
2640000000	-16.1359481868592	-63.0497221788981	-1.22165971238643	38.4775787000624			-1.12578854375857	38.4824201156399	-14.0534742234744	-75.1629267925009
