# Hz S DB R 50
2000000000	-22.0029338655923	154.462413324012	-0.421630994362232	101.986642440376			-0.397943581494563	100.993428800316	-28.7158793537375	55.1965612394591
2005000000	-21.7333409566387	149.53884809719	-0.363400112818477	101.381758938355			-0.41443057825197	99.7677393901929	-26.8576436027057	66.6274936746847
2010000000	-22.1604048213697	145.470087164485	-0.345558677806687	100.47588050017			-0.492068938734133	98.9382799814762	-26.1060849226794	75.8801319277588
2015000000	-22.8735438598958	145.513297800222	-0.386235479917819	99.407064399232			-0.564275049545156	98.4553649133689	-25.9517007900249	77.5978719411155
2020000000	-23.3216216985692	145.59454693769	-0.453217099603719	98.809298884681			-0.574056837407899	98.1322691317936	-26.873245181699	76.9221624474759
2025000000	-23.3021954777846	146.18619869292	-0.480777811998636	98.5404954030995			-0.507482347027362	97.6898630500133	-26.7927317086834	73.76768883901
2030000000	-22.9640629634887	146.245753943649	-0.420230075766085	98.168490432847			-0.433832026399252	96.9543615572351	-25.8170012395575	67.1127183194971
2035000000	-22.5609418941162	144.441851942843	-0.33896867265324	97.5619656779418			-0.417121936466481	95.96804229295	-24.4623913592409	68.5524809242679
2040000000	-22.6457355678417	139.943225575897	-0.292880621198318	96.5402213419667			-0.45293144683592	94.947244671263	-23.1566588074558	73.9103131133157
2045000000	-23.2439573957999	138.83570294512	-0.335952263690966	95.420276284496			-0.51260021997574	94.3984399697503	-22.8690667878924	73.6776430939626
2050000000	-24.1695248401801	136.963610114285	-0.41124332918072	94.5211060818615			-0.546801721076823	94.0578197385524	-23.5507199135219	73.7419998898148
2055000000	-24.8088035962438	136.845214957059	-0.48007736924382	94.1363242803741			-0.536803693000271	93.5245821670863	-24.5370298180589	70.623148758265
2060000000	-25.2693239506403	136.251524885453	-0.456501073590796	93.809519288113			-0.485972208013846	92.7863100075946	-25.0310823297466	60.1504702030997
2065000000	-25.2923544093574	134.195806237084	-0.361713297607249	93.1635830067849			-0.469489212481194	91.7929235857329	-24.3047851217028	51.1823925550265
2070000000	-25.2335598583855	129.63449248001	-0.343224594315988	92.2296322732177			-0.442106399104743	90.9720418904987	-23.3349000017989	48.8822868494588
2075000000	-25.0900041086017	124.002194868933	-0.373259873722514	91.1347257258403			-0.485028551719257	90.3822571550602	-22.5829470887765	46.7962549513751
2080000000	-25.1825059496316	118.96799504776	-0.398699095960808	90.3942895648176			-0.507614823470673	89.8985715729616	-22.7292204627412	48.2075413515852
2085000000	-25.3412909610371	114.385863558579	-0.426508172691918	89.9422750830459			-0.508662659484405	89.2830292966167	-23.3034294083946	49.174756477717
2090000000	-25.6385860870137	113.30670209374	-0.415477140620183	89.4380255345595			-0.48443960370209	88.7794743028083	-23.9654289721343	45.4512592150929
2095000000	-26.1239346403741	115.620047320263	-0.409649222300707	88.7259239215372			-0.493338337635333	88.0670938692367	-24.580753677857	37.9443495495987
2100000000	-26.3503791247027	115.140887488898	-0.381816582474788	87.8736687907599			-0.523052138420339	87.1709360533253	-24.19762390665	32.7928433497882
2105000000	-26.321135348542	114.553864674439	-0.405144685088109	86.9277241607746			-0.539046708110395	86.422570761762	-23.6924753210281	26.8925350520013
2110000000	-26.3552642323331	110.595964465089	-0.4367177722965	86.2785909865475			-0.539975837472503	85.9147992431039	-23.4577332407436	25.3247539639154
2115000000	-26.222085506905	102.933034729461	-0.452564170568048	85.6382315827498			-0.536886941251148	85.3226160352664	-23.6045848489958	25.947375540914
2120000000	-26.3285162053337	97.753840827551	-0.452870385613504	85.1961918103491			-0.550455145970634	84.7273636603794	-24.048045358369	25.4407603507632
2125000000	-26.8675818988399	95.0065399487266	-0.413066501825751	84.5521916977374			-0.546690792024474	84.1218631509308	-24.4264754827692	23.3854955686716
2130000000	-27.2639897133617	93.3680204297487	-0.444679158142673	83.8788239963948			-0.558306920961305	83.5699429216598	-24.7552753695567	16.4981989542872
2135000000	-27.2298130206283	93.2281567174706	-0.452460575803138	82.9452328766676			-0.566872946505724	82.7097717342455	-23.9020962074364	10.1446511880082
2140000000	-26.8765973043511	92.5174644830248	-0.485657487662258	82.1831903553313			-0.590941882053875	81.8515549692546	-22.8905174402409	4.38852270803192
2145000000	-26.3371269140665	90.8320759182184	-0.481846212702088	81.571294723324			-0.599340707600685	81.1508822651944	-21.9378917220366	3.74715615667591
2150000000	-26.0688908864162	84.5770501950416	-0.463164164063528	80.909163985998			-0.602897255735842	80.4904092709701	-20.9843016414206	4.08999834793247
2155000000	-26.5433190497241	81.3868825848471	-0.45411857166668	80.4310899872838			-0.587635252721099	80.0895469375523	-20.3387281542356	6.71034317958399
2160000000	-27.5930707442014	76.0773589323473	-0.438530412354531	79.5825915993741			-0.573998175829222	79.4090291163319	-19.7006250669895	10.2870710357346
2165000000	-28.9179555486057	68.6004957257262	-0.425627421613053	78.7241547963387			-0.585406471991215	78.5360998218242	-19.2901585663966	12.6768221696968
2170000000	-30.0574482235125	59.8684405521302	-0.435997413094152	78.0150882856933			-0.616135794491736	77.5647727812056	-18.7985890420959	14.1436743658523
2175000000	-29.9478032152116	50.084154037424	-0.459358887830061	77.1221932090809			-0.686709262016821	76.8696641228855	-18.4705158703302	13.4807017677804
2180000000	-29.021827703325	44.8591070121357	-0.477300746918451	76.4372813154382			-0.690383640328777	76.179685719511	-18.1032901070994	11.8368129143015
2185000000	-28.3159253597745	41.6561454977811	-0.483529569257814	75.6043392289464			-0.675768776678884	75.6264598972126	-17.8746183945167	10.8268462326878
2190000000	-27.7554661996224	35.9770170209243	-0.466780898267946	75.1014560780032			-0.62255314631398	74.9109800589691	-17.5787071141463	11.241859939605
2195000000	-27.7524597060567	29.7785947685223	-0.457049967026844	74.3539635564251			-0.624192189084587	74.1285957368179	-17.5713571648878	12.3174946374139
2200000000	-28.2502366986045	22.023929771961	-0.478120697404113	73.4639084049092			-0.661073007441214	73.3383755646016	-17.6570293099782	13.4926785552009
2205000000	-28.6792097564187	15.3450475174382	-0.517252259163329	72.6132671281397			-0.708586359705656	72.6339194476854	-17.8133685047235	14.3268380018024
2210000000	-28.4231827306849	17.4755303683348	-0.52246512186876	72.0704910504168			-0.726590027493903	72.1757324629462	-18.2271475427139	13.1142808178819
2215000000	-28.1784618221808	19.8776255850103	-0.555484571973338	71.4791475414644			-0.735413292632023	71.6298877188878	-18.7582815717712	9.66365718583689
2220000000	-27.5616861982138	19.4843929215307	-0.58576127910839	70.7368672230089			-0.689837146705217	70.9737426298656	-19.0198552190508	4.92771898355597
2225000000	-27.0243286362144	17.0851981451626	-0.569281426848371	70.0263869235814			-0.687314347202919	70.0334623493236	-19.0757441150659	-0.359143132140315
2230000000	-26.896369086965	13.6280133115438	-0.571551284424693	69.1129948739249			-0.683618063704511	69.1339814859727	-19.0190310593193	-4.80865492015447
2235000000	-27.1471186013058	6.59611757093351	-0.637526577125111	68.4100023568049			-0.730581909564976	68.5348761020532	-19.009660463833	-7.52352622688256
2240000000	-27.0599671150826	3.61652371340788	-0.668832395180314	67.5559524411274			-0.787552897897432	68.0882851811123	-19.0361858349526	-11.8602018691718
2245000000	-27.3000295457975	4.12280973907778	-0.707027129591846	67.0268066418279			-0.80220208497708	67.450094084912	-19.1601095526083	-15.6078305295486
2250000000	-27.0859882333443	2.40819131947364	-0.756206631246704	66.3619858198772			-0.779412884489326	66.6067744829811	-18.9631077994225	-19.5456250446988
2255000000	-26.9648341063171	-2.41868346469136	-0.744721467271224	65.7180846218528			-0.783659337141198	65.7916508267324	-18.5989713759861	-23.179951301243
2260000000	-26.8449083301713	-9.53440151130062	-0.779880826696422	64.7926906977321			-0.846130134479843	64.8734280116048	-18.0610913972278	-26.8698051568095
2265000000	-26.4999735863965	-22.8791157740849	-0.833878269955554	63.9348920696644			-0.910924261581042	64.0692752670803	-17.4439012154803	-28.8017240300345
2270000000	-25.8870712441557	-31.0961237499142	-0.872902278328494	63.21458474299			-0.946130239659127	63.7308783117172	-17.094590671142	-30.2419385364979
2275000000	-25.5083824628794	-37.1551941801318	-0.913163625354621	62.531820011174			-0.964519198540734	63.0469896705966	-16.8772493289888	-31.1913029962149
2280000000	-25.216857585529	-45.4206047267415	-0.951066944155168	61.6820963995623			-0.970261656941549	62.436745944927	-16.7792765064431	-32.2190459979904
2285000000	-25.1977209774626	-53.9308750249875	-0.971892735175434	60.9285670215949			-1.01328248436122	61.5397183077388	-16.7972514431533	-33.5744053630651
2290000000	-25.0367284101215	-62.1440641776429	-1.04222705811158	60.3806332984803			-1.10444517744501	60.800598463182	-16.9045116471842	-35.6265472260768
2295000000	-24.4899322452013	-73.0219749683924	-1.14254973724872	59.6578507243633			-1.18983593060058	60.2512698498112	-16.8639755676756	-38.1212385519114
2300000000	-23.7300505600966	-80.5505573165379	-1.20626989088221	58.8309780302138			-1.25320491320801	59.8147885297234	-16.7623472790976	-41.2818900808405
2305000000	-23.0956704853188	-87.9138864750485	-1.29658139678635	58.6089462856258			-1.30150195525997	59.3034600915856	-16.9043391351947	-44.8163083739494
2310000000	-22.8103589217192	-99.6360853422976	-1.40788141843594	58.1864363131609			-1.32603446122874	58.7258951615314	-17.168336139694	-48.7713197110259
2315000000	-22.4690062874462	-112.317962342908	-1.47884495345754	57.8980849124409			-1.41925004897377	58.3999907549872	-17.8301818318026	-52.6559146309902
2320000000	-22.1210173003693	-126.857878910123	-1.54786490671552	58.081683970561			-1.56758919867066	58.521538951494	-18.9594555859863	-57.9831431052549
2325000000	-21.6449090972711	-140.56312073985	-1.61771559499029	58.3337863039623			-1.6167130887666	59.0961534404025	-20.255831519736	-65.2320150575442
2330000000	-21.160486461035	-151.823873716837	-1.64122192924004	58.424239446036			-1.63800786712655	59.7996166650369	-21.675222991766	-73.5132784219664
2335000000	-20.9411000521734	-161.848317929933	-1.66970114061561	58.8624185130957			-1.62411972136189	60.1276498271621	-23.2826641754726	-82.9119499432216
2340000000	-20.7350500676503	-172.43321125336	-1.65266129221381	59.4475712182849			-1.58484652199207	60.0105029992477	-25.5202633865768	-88.0589335301143
2345000000	-20.6483355149748	175.847735781091	-1.53213277583775	59.7021104933241			-1.47932117646476	60.3224476730822	-29.2155120781432	-81.7777097682247
2350000000	-20.6964271371003	164.128578853859	-1.36981920029069	59.787389414323			-1.39447748894088	60.2995552445558	-34.8012714109943	-47.7205992525739
2355000000	-20.7124388597023	153.088856879892	-1.22629293533729	59.3601173201556			-1.24395131382092	60.2757304836407	-33.6234537009025	12.0219220447226
2360000000	-20.9365479931444	144.279237835632	-1.14239301734241	58.5666993782455			-1.08776754240629	59.8139636096991	-29.8750889134194	33.3152411799303
2365000000	-21.4368097463213	136.445108336514	-1.04825236420807	57.9706763177504			-0.995683311185764	59.0340362991682	-27.9993659020197	38.7421578903339
2370000000	-22.0257391890478	129.188870015237	-0.974805062964719	57.513732238703			-0.923443469534844	58.1760455324923	-26.4398739421883	36.6599878777194
2375000000	-22.6430566545138	123.403667274225	-0.891405454548402	56.7714972600488			-0.855689811100857	57.2044442966416	-24.8786146754316	31.0885338340378
2380000000	-23.2309795102065	119.322715795422	-0.828380309694756	55.7527006051118			-0.810545515282577	56.413146998009	-23.2300781974646	26.7266326174026
2385000000	-23.9472767570994	117.145355630615	-0.751692086107357	54.7085257655807			-0.739486709639481	55.3802549429436	-21.7655935357261	23.3805907794288
2390000000	-24.5939286170059	115.190865533384	-0.76081474528196	53.7798842811958			-0.669780442655875	54.5413817842963	-20.7506648007193	23.7524232391323
2395000000	-25.3319490119064	111.720688280966	-0.733130248527797	52.871364397851			-0.655516224410879	53.8883335682311	-20.3556796487615	23.627114396412
2400000000	-25.9877693385515	105.295037114102	-0.737449100701124	52.2993644159325			-0.630884858051411	52.9700107844739	-20.5477380773027	22.9076022901493
2405000000	-26.5839589395469	96.6899243049551	-0.715741580408474	51.5634043720093			-0.610504932762183	52.1918630012908	-20.5934307823704	19.2082951672896
2410000000	-27.1186093061884	91.3451981618125	-0.684744719521481	50.8133444977787			-0.607359332105055	51.382857677968	-20.426985987821	14.2652926607659
2415000000	-27.5275430112635	88.1840845950901	-0.672883606842613	50.1184576973582			-0.599194358615718	50.4881669060084	-20.0159318391599	9.40130495113654
2420000000	-28.1279430713897	87.5258618703638	-0.661910481154247	49.3120725922536			-0.563213516044182	49.6862313934062	-19.2532571812497	6.16190606492901
2425000000	-28.9147574940058	85.3514937208861	-0.666315975923746	48.2243189603812			-0.559162146962454	49.0152335925446	-18.8637324256113	5.42639770234601
2430000000	-29.7705898491365	76.5805658500773	-0.678916753199926	47.6460329177633			-0.522980591451884	48.2341562488161	-18.7419107690161	3.92958777748928
2435000000	-30.1753661881357	67.6732426221803	-0.700168014978977	47.1820824505023			-0.486920299802225	47.5569111843854	-18.5662245310985	2.09146324297288
2440000000	-30.3072047869499	61.7287776594358	-0.71622743963965	46.4443812019587			-0.526199827233908	46.7888622309536	-18.5048520988697	-1.01955205346348
2445000000	-30.6119951203587	57.7786487229285	-0.661671334586391	45.9106426551951			-0.549340800263282	45.9684031528104	-17.9688375319136	-5.39566263319468
2450000000	-31.6416680906064	56.2825869658631	-0.666401400346909	44.9780594731487			-0.513550921941254	45.1631713213574	-17.2599403381423	-7.95288614630221
2455000000	-33.6074211353879	57.5992936858844	-0.69211150842041	43.981771291011			-0.508755625988593	44.5567092342654	-16.7451905297473	-8.03387019287795
2460000000	-35.0712725124998	55.1325453993874	-0.706327072032977	43.135523789465			-0.494447935759744	43.7126601124721	-16.4916582494931	-7.03904068593541
2465000000	-35.1030521652389	45.5259923352609	-0.785972907007713	42.4553967074522			-0.465710899192743	42.9287403516905	-16.6288093434497	-4.61280805120221
2470000000	-34.2779196003159	37.4681237238805	-0.763448114628088	42.0341506116629			-0.482895827486714	42.3688010471176	-16.7181309370486	-2.95391934423285
2475000000	-33.9567404350375	39.4035886769441	-0.714898108067743	41.4975946032635			-0.499197628962455	41.4598278825206	-16.7511831253145	-4.72637726568718
2480000000	-34.119137411998	41.8501540743391	-0.679721025945408	40.811558384652			-0.5104372244458	40.7985372560085	-16.5626050131815	-7.96407115330601
2485000000	-36.4574336986755	49.3182035239685	-0.687409379635796	39.7127135860401			-0.498272436467146	40.2466116390741	-16.2207024206067	-10.4581518765075
2490000000	-41.0289904403284	56.0169306145018	-0.722417127876174	38.9206695938729			-0.492969242463217	39.4034965918653	-16.0024077777083	-11.3836287208752
2495000000	-45.4051734550258	47.0064420981511	-0.804821688524453	38.4684469443929			-0.443713392430355	38.5195992388725	-15.9005600156198	-10.4719269955551
2500000000	-50.8942228010733	38.3506157739867	-0.789622359433792	37.9623182133696			-0.423878376129304	37.7683618684605	-15.9658096686532	-8.1072539875553
2505000000	-47.8516528565135	28.7973913300675	-0.716447836004151	37.4438735563216			-0.448472672667131	36.9589451810675	-16.2077625686211	-7.98658766431889
2510000000	-44.387049799518	23.2080484927497	-0.63796215421451	36.7429033028247			-0.466556527892365	36.1628224552725	-16.5174150052222	-10.6906930839837
2515000000	-44.3855058907442	24.1576928958188	-0.677018168138914	35.649889800568			-0.472177805085673	35.807212221211	-16.7338580104578	-13.3651173164504
2520000000	-49.7248042964299	14.0912338202851	-0.739284310127182	34.7580577096438			-0.466036090966612	35.1303241156339	-16.7540101281491	-16.5874782469703
2525000000	-51.0407189845264	-26.4024728764045	-0.807247696307128	34.6132772535121			-0.449800706895998	34.1305220557626	-16.5019574190071	-18.3166704099866
2530000000	-51.6861897143043	26.7889722588213	-0.837034594343212	34.2498052914887			-0.423285007012287	33.3318721604415	-16.0656086600782	-17.1642640213097
2535000000	-44.0226130939587	84.7614911011924	-0.758784775502765	33.6751626781182			-0.462941028440235	32.4058648036159	-15.8291503808619	-15.9938094433291
2540000000	-38.4386206638751	88.7890746707591	-0.673208739529116	32.6666018523916			-0.478062989453346	31.5305103861908	-15.9222947600723	-16.4126644193075
2545000000	-36.2664316415458	95.6294011922766	-0.683985940451881	31.5692353649174			-0.46175879114601	31.0893677407473	-16.2152256015524	-16.0660034739433
2550000000	-36.0392855288208	111.807564659007	-0.731497737528076	30.8222103411696			-0.439462719756777	30.6703463364077	-16.5365355935222	-16.4392649819326
2555000000	-36.2485525093946	134.39309572889	-0.776200223270569	30.5759436939622			-0.423584311882335	29.8626026265712	-16.8005330975012	-17.6720411279876
2560000000	-37.2255669103145	145.109678892226	-0.816285485698724	30.4761439107021			-0.405578629925712	29.1677832601612	-16.4800349270187	-18.9014524478098
2565000000	-36.2938625726485	137.991639510318	-0.766571859278784	29.9151217454984			-0.445037490869729	28.2662749667184	-16.1170049215579	-21.0757510839155
2570000000	-36.0384783081325	122.751505292666	-0.711502250368032	29.0871109491137			-0.495842925557282	27.3856735910744	-15.8825902358311	-22.5675793661799
2575000000	-35.0456019972138	106.849971413314	-0.727535161348598	28.0231351582927			-0.504362936378515	27.0082355219071	-15.8864829958897	-22.9495092908453
2580000000	-33.664840111419	105.30261445375	-0.761576869221523	27.2638181243044			-0.484527672482245	26.5686021995083	-16.1039358599458	-22.5059670552294
2585000000	-33.7761651881063	117.02911614561	-0.768339888589472	27.0652386694025			-0.444194241012973	25.8422434331386	-16.4941741364718	-23.1059253436495
2590000000	-34.8336316435047	133.42444870175	-0.764816982209597	26.9653095881705			-0.397234908136529	25.1182555663883	-16.6201754698339	-24.6071755640805
2595000000	-34.2063085506872	150.698005377916	-0.694533205307617	26.5555493164876			-0.392035695097428	24.2457098601754	-16.5743293974341	-27.3753970889934
2600000000	-34.1850870569758	155.569267849381	-0.640014690595609	25.6301057478019			-0.462461298635532	23.45509051275	-16.5540605171889	-30.746232929645
2605000000	-34.4416480368994	163.589611112791	-0.66584509147415	24.7685046353423			-0.455651003111841	22.941269237301	-16.342685556122	-32.0369379973683
2610000000	-34.0092840280255	163.545544389424	-0.738490153418523	23.959681247393			-0.476468154031077	22.4190353330133	-16.2557540443313	-31.2674695255288
2615000000	-32.4458435657426	166.600772237355	-0.727760476347047	23.2312665341831			-0.446917219659048	21.5271774945881	-16.4232476391432	-30.6757109037639
2620000000	-32.4622635275122	175.455483546361	-0.733892552535102	23.0532213863564			-0.393742481354111	20.7976484116321	-16.5361455641751	-31.2292447480028
2625000000	-33.0335775081035	173.780660039119	-0.707561514816206	22.44375660515			-0.402305050927967	20.0734883762558	-16.7578802693677	-32.6502341001114
2630000000	-32.887262432906	159.517797527639	-0.629261861933011	21.4509436538269			-0.445671540756342	19.0289793242136	-17.0036175330202	-35.8621242277224
2635000000	-32.2946036569898	144.763755756114	-0.632085983296642	20.649094804045			-0.498579847377199	18.2500006076778	-16.9089234904339	-38.3722553640577
