<Qucs Dataset 0.0.16>
<indep y 1>
  +1.00000000000e+000
</indep>
<indep frequency 100>
  +2.00000000000e+009
  +2.00820801123e+009
  +2.01644970818e+009
  +2.02472522910e+009
  +2.03303471280e+009
  +2.04137829868e+009
  +2.04975612667e+009
  +2.05816833732e+009
  +2.06661507173e+009
  +2.07509647159e+009
  +2.08361267916e+009
  +2.09216383729e+009
  +2.10075008942e+009
  +2.10937157958e+009
  +2.11802845238e+009
  +2.12672085304e+009
  +2.13544892736e+009
  +2.14421282174e+009
  +2.15301268320e+009
  +2.16184865934e+009
  +2.17072089837e+009
  +2.17962954912e+009
  +2.18857476102e+009
  +2.19755668413e+009
  +2.20657546910e+009
  +2.21563126721e+009
  +2.22472423036e+009
  +2.23385451109e+009
  +2.24302226255e+009
  +2.25222763850e+009
  +2.26147079337e+009
  +2.27075188220e+009
  +2.28007106068e+009
  +2.28942848511e+009
  +2.29882431246e+009
  +2.30825870034e+009
  +2.31773180701e+009
  +2.32724379135e+009
  +2.33679481294e+009
  +2.34638503196e+009
  +2.35601460931e+009
  +2.36568370649e+009
  +2.37539248570e+009
  +2.38514110979e+009
  +2.39492974230e+009
  +2.40475854740e+009
  +2.41462768998e+009
  +2.42453733557e+009
  +2.43448765041e+009
  +2.44447880139e+009
  +2.45451095611e+009
  +2.46458428285e+009
  +2.47469895059e+009
  +2.48485512897e+009
  +2.49505298837e+009
  +2.50529269984e+009
  +2.51557443514e+009
  +2.52589836674e+009
  +2.53626466782e+009
  +2.54667351225e+009
  +2.55712507464e+009
  +2.56761953030e+009
  +2.57815705527e+009
  +2.58873782629e+009
  +2.59936202086e+009
  +2.61002981719e+009
  +2.62074139421e+009
  +2.63149693160e+009
  +2.64229660978e+009
  +2.65314060990e+009
  +2.66402911385e+009
  +2.67496230429e+009
  +2.68594036460e+009
  +2.69696347894e+009
  +2.70803183219e+009
  +2.71914561003e+009
  +2.73030499888e+009
  +2.74151018592e+009
  +2.75276135911e+009
  +2.76405870718e+009
  +2.77540241963e+009
  +2.78679268674e+009
  +2.79822969957e+009
  +2.80971364997e+009
  +2.82124473056e+009
  +2.83282313477e+009
  +2.84444905681e+009
  +2.85612269171e+009
  +2.86784423527e+009
  +2.87961388411e+009
  +2.89143183565e+009
  +2.90329828814e+009
  +2.91521344061e+009
  +2.92717749293e+009
  +2.93919064579e+009
  +2.95125310070e+009
  +2.96336505999e+009
  +2.97552672684e+009
  +2.98773830522e+009
  +3.00000000000e+009
</indep>
<dep ZL frequency>
  +5.06583450232e+001
  +5.06588127546e+001
  +5.06592875252e+001
  +5.06597694130e+001
  +5.06602584965e+001
  +5.06607548550e+001
  +5.06612585688e+001
  +5.06617697186e+001
  +5.06622883862e+001
  +5.06628146539e+001
  +5.06633486051e+001
  +5.06638903237e+001
  +5.06644398946e+001
  +5.06649974033e+001
  +5.06655629365e+001
  +5.06661365813e+001
  +5.06667184259e+001
  +5.06673085592e+001
  +5.06679070711e+001
  +5.06685140521e+001
  +5.06691295938e+001
  +5.06697537887e+001
  +5.06703867299e+001
  +5.06710285116e+001
  +5.06716792288e+001
  +5.06723389775e+001
  +5.06730078546e+001
  +5.06736859578e+001
  +5.06743733857e+001
  +5.06750702380e+001
  +5.06757766154e+001
  +5.06764926191e+001
  +5.06772183519e+001
  +5.06779539169e+001
  +5.06786994188e+001
  +5.06794549627e+001
  +5.06802206552e+001
  +5.06809966035e+001
  +5.06817829161e+001
  +5.06825797023e+001
  +5.06833870726e+001
  +5.06842051384e+001
  +5.06850340122e+001
  +5.06858738074e+001
  +5.06867246388e+001
  +5.06875866220e+001
  +5.06884598737e+001
  +5.06893445118e+001
  +5.06902406551e+001
  +5.06911484238e+001
  +5.06920679389e+001
  +5.06929993228e+001
  +5.06939426988e+001
  +5.06948981914e+001
  +5.06958659265e+001
  +5.06968460308e+001
  +5.06978386323e+001
  +5.06988438603e+001
  +5.06998618453e+001
  +5.07008927187e+001
  +5.07019366134e+001
  +5.07029936635e+001
  +5.07040640042e+001
  +5.07051477721e+001
  +5.07062451049e+001
  +5.07073561416e+001
  +5.07084810226e+001
  +5.07096198894e+001
  +5.07107728850e+001
  +5.07119401534e+001
  +5.07131218403e+001
  +5.07143180923e+001
  +5.07155290578e+001
  +5.07167548862e+001
  +5.07179957283e+001
  +5.07192517365e+001
  +5.07205230643e+001
  +5.07218098668e+001
  +5.07231123003e+001
  +5.07244305227e+001
  +5.07257646933e+001
  +5.07271149727e+001
  +5.07284815231e+001
  +5.07298645080e+001
  +5.07312640926e+001
  +5.07326804435e+001
  +5.07341137286e+001
  +5.07355641175e+001
  +5.07370317812e+001
  +5.07385168925e+001
  +5.07400196254e+001
  +5.07415401556e+001
  +5.07430786604e+001
  +5.07446353187e+001
  +5.07462103108e+001
  +5.07478038188e+001
  +5.07494160264e+001
  +5.07510471188e+001
  +5.07526972829e+001
  +5.07543667074e+001
</dep>
<dep A[1,1] frequency>
  -7.45260486962e-001+j6.06389201208e-002
  -7.51951928193e-001+j6.02086923865e-002
  -7.58596780194e-001+j5.97651508242e-002
  -7.65193553959e-001+j5.93081399013e-002
  -7.71740742453e-001+j5.88375042911e-002
  -7.78236820614e-001+j5.83530889360e-002
  -7.84680245371e-001+j5.78547391137e-002
  -7.91069455662e-001+j5.73423005043e-002
  -7.97402872464e-001+j5.68156192600e-002
  -8.03678898829e-001+j5.62745420772e-002
  -8.09895919929e-001+j5.57189162694e-002
  -8.16052303107e-001+j5.51485898439e-002
  -8.22146397936e-001+j5.45634115792e-002
  -8.28176536290e-001+j5.39632311057e-002
  -8.34141032425e-001+j5.33478989877e-002
  -8.40038183058e-001+j5.27172668081e-002
  -8.45866267471e-001+j5.20711872560e-002
  -8.51623547614e-001+j5.14095142149e-002
  -8.57308268221e-001+j5.07321028556e-002
  -8.62918656936e-001+j5.00388097293e-002
  -8.68452924451e-001+j4.93294928646e-002
  -8.73909264652e-001+j4.86040118663e-002
  -8.79285854776e-001+j4.78622280169e-002
  -8.84580855586e-001+j4.71040043806e-002
  -8.89792411546e-001+j4.63292059097e-002
  -8.94918651016e-001+j4.55376995542e-002
  -8.99957686461e-001+j4.47293543731e-002
  -9.04907614665e-001+j4.39040416489e-002
  -9.09766516961e-001+j4.30616350051e-002
  -9.14532459480e-001+j4.22020105256e-002
  -9.19203493401e-001+j4.13250468778e-002
  -9.23777655231e-001+j4.04306254374e-002
  -9.28252967079e-001+j3.95186304171e-002
  -9.32627436968e-001+j3.85889489973e-002
  -9.36899059138e-001+j3.76414714601e-002
  -9.41065814384e-001+j3.66760913262e-002
  -9.45125670395e-001+j3.56927054943e-002
  -9.49076582119e-001+j3.46912143839e-002
  -9.52916492137e-001+j3.36715220807e-002
  -9.56643331057e-001+j3.26335364855e-002
  -9.60255017925e-001+j3.15771694652e-002
  -9.63749460650e-001+j3.05023370077e-002
  -9.67124556454e-001+j2.94089593794e-002
  -9.70378192325e-001+j2.82969612858e-002
  -9.73508245511e-001+j2.71662720350e-002
  -9.76512584007e-001+j2.60168257047e-002
  -9.79389067082e-001+j2.48485613116e-002
  -9.82135545815e-001+j2.36614229849e-002
  -9.84749863650e-001+j2.24553601415e-002
  -9.87229856977e-001+j2.12303276657e-002
  -9.89573355729e-001+j1.99862860910e-002
  -9.91778184000e-001+j1.87232017855e-002
  -9.93842160688e-001+j1.74410471399e-002
  -9.95763100157e-001+j1.61398007595e-002
  -9.97538812915e-001+j1.48194476581e-002
  -9.99167106330e-001+j1.34799794558e-002
  -1.00064578535e+000+j1.21213945795e-002
  -1.00197265326e+000+j1.07436984665e-002
  -1.00314551247e+000+j9.34690377129e-003
  -1.00416216526e+000+j7.93103057474e-003
  -1.00502041470e+000+j6.49610659699e-003
  -1.00571806541e+000+j5.04216741275e-003
  -1.00625292446e+000+j3.56925666968e-003
  -1.00662280231e+000+j2.07742630954e-003
  -1.00682551365e+000+j5.66736792235e-004
  -1.00685887844e+000-j9.62742677460e-004
  -1.00672072282e+000-j2.51093392045e-003
  -1.00640888016e+000-j4.07774955122e-003
  -1.00592119206e+000-j5.66309274312e-003
  -1.00525550940e+000-j7.26685699115e-003
  -1.00440969347e+000-j8.88892587231e-003
  -1.00338161703e+000-j1.05291728036e-002
  -1.00216916550e+000-j1.21874607974e-002
  -1.00077023809e+000-j1.38636422154e-002
  -9.99182749029e-001-j1.55575585196e-002
  -9.97404628772e-001-j1.72690400214e-002
  -9.95433825272e-001-j1.89979056295e-002
  -9.93268305266e-001-j2.07439625952e-002
  -9.90906055585e-001-j2.25070062561e-002
  -9.88345084512e-001-j2.42868197789e-002
  -9.85583423153e-001-j2.60831738996e-002
  -9.82619126852e-001-j2.78958266639e-002
  -9.79450276627e-001-j2.97245231647e-002
  -9.76074980644e-001-j3.15689952803e-002
  -9.72491375719e-001-j3.34289614104e-002
  -9.68697628852e-001-j3.53041262122e-002
  -9.64691938792e-001-j3.71941803357e-002
  -9.60472537638e-001-j3.90988001589e-002
  -9.56037692460e-001-j4.10176475224e-002
  -9.51385706971e-001-j4.29503694646e-002
  -9.46514923209e-001-j4.48965979567e-002
  -9.41423723271e-001-j4.68559496388e-002
  -9.36110531064e-001-j4.88280255559e-002
  -9.30573814095e-001-j5.08124108957e-002
  -9.24812085293e-001-j5.28086747269e-002
  -9.18823904860e-001-j5.48163697393e-002
  -9.12607882158e-001-j5.68350319860e-002
  -9.06162677619e-001-j5.88641806265e-002
  -8.99487004697e-001-j6.09033176733e-002
  -8.92579631848e-001-j6.29519277405e-002
</dep>
<dep A[1,2] frequency>
  -3.40227618586e+000+j3.40872514551e+001
  -3.44658974240e+000+j3.37108494651e+001
  -3.49099001088e+000+j3.33294819898e+001
  -3.53546924683e+000+j3.29431375543e+001
  -3.58001949990e+000+j3.25518055269e+001
  -3.62463261107e+000+j3.21554761431e+001
  -3.66930020969e+000+j3.17541405288e+001
  -3.71401371074e+000+j3.13477907246e+001
  -3.75876431193e+000+j3.09364197097e+001
  -3.80354299088e+000+j3.05200214268e+001
  -3.84834050230e+000+j3.00985908069e+001
  -3.89314737519e+000+j2.96721237950e+001
  -3.93795391004e+000+j2.92406173750e+001
  -3.98275017604e+000+j2.88040695966e+001
  -4.02752600835e+000+j2.83624796007e+001
  -4.07227100534e+000+j2.79158476468e+001
  -4.11697452588e+000+j2.74641751396e+001
  -4.16162568668e+000+j2.70074646563e+001
  -4.20621335957e+000+j2.65457199745e+001
  -4.25072616895e+000+j2.60789460999e+001
  -4.29515248913e+000+j2.56071492947e+001
  -4.33948044179e+000+j2.51303371061e+001
  -4.38369789351e+000+j2.46485183954e+001
  -4.42779245321e+000+j2.41617033672e+001
  -4.47175146979e+000+j2.36699035988e+001
  -4.51556202971e+000+j2.31731320702e+001
  -4.55921095468e+000+j2.26714031942e+001
  -4.60268479939e+000+j2.21647328467e+001
  -4.64596984924e+000+j2.16531383976e+001
  -4.68905211827e+000+j2.11366387418e+001
  -4.73191734701e+000+j2.06152543306e+001
  -4.77455100048e+000+j2.00890072027e+001
  -4.81693826625e+000+j1.95579210168e+001
  -4.85906405256e+000+j1.90220210832e+001
  -4.90091298655e+000+j1.84813343960e+001
  -4.94246941254e+000+j1.79358896661e+001
  -4.98371739044e+000+j1.73857173537e+001
  -5.02464069420e+000+j1.68308497014e+001
  -5.06522281043e+000+j1.62713207674e+001
  -5.10544693706e+000+j1.57071664588e+001
  -5.14529598217e+000+j1.51384245655e+001
  -5.18475256283e+000+j1.45651347937e+001
  -5.22379900419e+000+j1.39873388000e+001
  -5.26241733860e+000+j1.34050802254e+001
  -5.30058930488e+000+j1.28184047297e+001
  -5.33829634777e+000+j1.22273600259e+001
  -5.37551961741e+000+j1.16319959144e+001
  -5.41223996912e+000+j1.10323643180e+001
  -5.44843796318e+000+j1.04285193160e+001
  -5.48409386487e+000+j9.82051717972e+000
  -5.51918764461e+000+j9.20841640648e+000
  -5.55369897833e+000+j8.59227775495e+000
  -5.58760724794e+000+j7.97216427976e+000
  -5.62089154206e+000+j7.34814136637e+000
  -5.65353065688e+000+j6.72027676585e+000
  -5.68550309722e+000+j6.08864062965e+000
  -5.71678707785e+000+j5.45330554426e+000
  -5.74736052493e+000+j4.81434656581e+000
  -5.77720107776e+000+j4.17184125454e+000
  -5.80628609066e+000+j3.52586970918e+000
  -5.83459263515e+000+j2.87651460106e+000
  -5.86209750234e+000+j2.22386120818e+000
  -5.88877720557e+000+j1.56799744894e+000
  -5.91460798330e+000+j9.09013915715e-001
  -5.93956580226e+000+j2.47003908115e-001
  -5.96362636091e+000-j4.17936534036e-001
  -5.98676509306e+000-j1.08570859805e+000
  -6.00895717196e+000-j1.75621066606e+000
  -6.03017751450e+000-j2.42933828315e+000
  -6.05040078583e+000-j3.10498412584e+000
  -6.06960140426e+000-j3.78303797109e+000
  -6.08775354647e+000-j4.46338666573e+000
  -6.10483115302e+000-j5.14591409648e+000
  -6.12080793432e+000-j5.83050116049e+000
  -6.13565737676e+000-j6.51702573650e+000
  -6.14935274936e+000-j7.20536265665e+000
  -6.16186711074e+000-j7.89538367894e+000
  -6.17317331637e+000-j8.58695746044e+000
  -6.18324402635e+000-j9.27994953127e+000
  -6.19205171352e+000-j9.97422226934e+000
  -6.19956867193e+000-j1.06696348760e+001
  -6.20576702580e+000-j1.13660433526e+001
  -6.21061873885e+000-j1.20633004780e+001
  -6.21409562411e+000-j1.27612557867e+001
  -6.21616935411e+000-j1.34597555490e+001
  -6.21681147162e+000-j1.41586427510e+001
  -6.21599340073e+000-j1.48577570765e+001
  -6.21368645850e+000-j1.55569348903e+001
  -6.20986186709e+000-j1.62560092221e+001
  -6.20449076630e+000-j1.69548097518e+001
  -6.19754422673e+000-j1.76531627969e+001
  -6.18899326337e+000-j1.83508913005e+001
  -6.17880884973e+000-j1.90478148211e+001
  -6.16696193254e+000-j1.97437495242e+001
  -6.15342344696e+000-j2.04385081747e+001
  -6.13816433237e+000-j2.11319001321e+001
  -6.12115554869e+000-j2.18237313464e+001
  -6.10236809334e+000-j2.25138043567e+001
  -6.08177301867e+000-j2.32019182908e+001
  -6.05934145013e+000-j2.38878688673e+001
</dep>
<dep A[2,1] frequency>
  -1.32576811591e-003+j1.32828108799e-002
  -1.34301102026e-003+j1.31358953974e-002
  -1.36028669743e-003+j1.29870468955e-002
  -1.37759210928e-003+j1.28362610962e-002
  -1.39492413741e-003+j1.26835340553e-002
  -1.41227958201e-003+j1.25288621716e-002
  -1.42965516080e-003+j1.23722421959e-002
  -1.44704750790e-003+j1.22136712407e-002
  -1.46445317280e-003+j1.20531467895e-002
  -1.48186861917e-003+j1.18906667066e-002
  -1.49929022388e-003+j1.17262292467e-002
  -1.51671427587e-003+j1.15598330651e-002
  -1.53413697507e-003+j1.13914772274e-002
  -1.55155443137e-003+j1.12211612200e-002
  -1.56896266355e-003+j1.10488849599e-002
  -1.58635759822e-003+j1.08746488058e-002
  -1.60373506880e-003+j1.06984535683e-002
  -1.62109081448e-003+j1.05203005203e-002
  -1.63842047924e-003+j1.03401914083e-002
  -1.65571961079e-003+j1.01581284632e-002
  -1.67298365964e-003+j9.97411441117e-003
  -1.69020797811e-003+j9.78815248483e-003
  -1.70738781935e-003+j9.60024643479e-003
  -1.72451833645e-003+j9.41040054086e-003
  -1.74159458146e-003+j9.21861962364e-003
  -1.75861150456e-003+j9.02490905613e-003
  -1.77556395313e-003+j8.82927477552e-003
  -1.79244667091e-003+j8.63172329505e-003
  -1.80925429718e-003+j8.43226171595e-003
  -1.82598136593e-003+j8.23089773957e-003
  -1.84262230511e-003+j8.02763967952e-003
  -1.85917143586e-003+j7.82249647398e-003
  -1.87562297179e-003+j7.61547769807e-003
  -1.89197101829e-003+j7.40659357632e-003
  -1.90820957189e-003+j7.19585499525e-003
  -1.92433251960e-003+j6.98327351601e-003
  -1.94033363837e-003+j6.76886138713e-003
  -1.95620659450e-003+j6.55263155732e-003
  -1.97194494317e-003+j6.33459768838e-003
  -1.98754212795e-003+j6.11477416815e-003
  -2.00299148036e-003+j5.89317612356e-003
  -2.01828621953e-003+j5.66981943371e-003
  -2.03341945186e-003+j5.44472074304e-003
  -2.04838417072e-003+j5.21789747450e-003
  -2.06317325623e-003+j4.98936784284e-003
  -2.07777947511e-003+j4.75915086789e-003
  -2.09219548050e-003+j4.52726638789e-003
  -2.10641381197e-003+j4.29373507284e-003
  -2.12042689546e-003+j4.05857843790e-003
  -2.13422704339e-003+j3.82181885676e-003
  -2.14780645473e-003+j3.58347957511e-003
  -2.16115721524e-003+j3.34358472397e-003
  -2.17427129772e-003+j3.10215933316e-003
  -2.18714056234e-003+j2.85922934466e-003
  -2.19975675705e-003+j2.61482162601e-003
  -2.21211151807e-003+j2.36896398365e-003
  -2.22419637046e-003+j2.12168517620e-003
  -2.23600272877e-003+j1.87301492775e-003
  -2.24752189777e-003+j1.62298394108e-003
  -2.25874507330e-003+j1.37162391077e-003
  -2.26966334315e-003+j1.11896753627e-003
  -2.28026768810e-003+j8.65048534898e-004
  -2.29054898301e-003+j6.09901654733e-004
  -2.30049799804e-003+j3.53562687366e-004
  -2.31010539995e-003+j9.60684805829e-005
  -2.31936175354e-003-j1.62543049110e-004
  -2.32825752316e-003-j4.22232904092e-004
  -2.33678307435e-003-j6.82960993396e-004
  -2.34492867561e-003-j9.44686120632e-004
  -2.35268450025e-003-j1.20736597210e-003
  -2.36004062843e-003-j1.47095710509e-003
  -2.36698704927e-003-j1.73541493640e-003
  -2.37351366306e-003-j2.00069373104e-003
  -2.37961028372e-003-j2.26674659124e-003
  -2.38526664130e-003-j2.53352544564e-003
  -2.39047238460e-003-j2.80098103878e-003
  -2.39521708405e-003-j3.06906292088e-003
  -2.39949023462e-003-j3.33771943788e-003
  -2.40328125893e-003-j3.60689772185e-003
  -2.40657951053e-003-j3.87654368171e-003
  -2.40937427732e-003-j4.14660199428e-003
  -2.41165478512e-003-j4.41701609573e-003
  -2.41341020141e-003-j4.68772817339e-003
  -2.41462963928e-003-j4.95867915801e-003
  -2.41530216150e-003-j5.22980871641e-003
  -2.41541678478e-003-j5.50105524456e-003
  -2.41496248425e-003-j5.77235586120e-003
  -2.41392819806e-003-j6.04364640186e-003
  -2.41230283225e-003-j6.31486141348e-003
  -2.41007526572e-003-j6.58593414945e-003
  -2.40723435547e-003-j6.85679656533e-003
  -2.40376894202e-003-j7.12737931506e-003
  -2.39966785499e-003-j7.39761174777e-003
  -2.39491991897e-003-j7.66742190528e-003
  -2.38951395955e-003-j7.93673652020e-003
  -2.38343880955e-003-j8.20548101467e-003
  -2.37668331551e-003-j8.47357949990e-003
  -2.36923634439e-003-j8.74095477633e-003
  -2.36108679048e-003-j9.00752833458e-003
  -2.35222358256e-003-j9.27322035723e-003
</dep>
<dep A[2,2] frequency>
  -7.45260486962e-001+j6.06389201208e-002
  -7.51951928193e-001+j6.02086923865e-002
  -7.58596780194e-001+j5.97651508242e-002
  -7.65193553959e-001+j5.93081399013e-002
  -7.71740742453e-001+j5.88375042911e-002
  -7.78236820614e-001+j5.83530889360e-002
  -7.84680245371e-001+j5.78547391137e-002
  -7.91069455662e-001+j5.73423005043e-002
  -7.97402872464e-001+j5.68156192600e-002
  -8.03678898829e-001+j5.62745420772e-002
  -8.09895919929e-001+j5.57189162694e-002
  -8.16052303107e-001+j5.51485898439e-002
  -8.22146397936e-001+j5.45634115792e-002
  -8.28176536290e-001+j5.39632311057e-002
  -8.34141032425e-001+j5.33478989877e-002
  -8.40038183058e-001+j5.27172668081e-002
  -8.45866267471e-001+j5.20711872560e-002
  -8.51623547614e-001+j5.14095142149e-002
  -8.57308268221e-001+j5.07321028556e-002
  -8.62918656936e-001+j5.00388097293e-002
  -8.68452924451e-001+j4.93294928646e-002
  -8.73909264652e-001+j4.86040118663e-002
  -8.79285854776e-001+j4.78622280169e-002
  -8.84580855586e-001+j4.71040043806e-002
  -8.89792411546e-001+j4.63292059097e-002
  -8.94918651016e-001+j4.55376995542e-002
  -8.99957686461e-001+j4.47293543731e-002
  -9.04907614665e-001+j4.39040416489e-002
  -9.09766516961e-001+j4.30616350051e-002
  -9.14532459480e-001+j4.22020105256e-002
  -9.19203493401e-001+j4.13250468778e-002
  -9.23777655231e-001+j4.04306254374e-002
  -9.28252967079e-001+j3.95186304171e-002
  -9.32627436968e-001+j3.85889489973e-002
  -9.36899059138e-001+j3.76414714601e-002
  -9.41065814384e-001+j3.66760913262e-002
  -9.45125670395e-001+j3.56927054943e-002
  -9.49076582119e-001+j3.46912143839e-002
  -9.52916492137e-001+j3.36715220807e-002
  -9.56643331057e-001+j3.26335364855e-002
  -9.60255017925e-001+j3.15771694652e-002
  -9.63749460650e-001+j3.05023370077e-002
  -9.67124556454e-001+j2.94089593794e-002
  -9.70378192325e-001+j2.82969612858e-002
  -9.73508245511e-001+j2.71662720350e-002
  -9.76512584007e-001+j2.60168257047e-002
  -9.79389067082e-001+j2.48485613116e-002
  -9.82135545815e-001+j2.36614229849e-002
  -9.84749863650e-001+j2.24553601415e-002
  -9.87229856977e-001+j2.12303276657e-002
  -9.89573355729e-001+j1.99862860910e-002
  -9.91778184000e-001+j1.87232017855e-002
