# Hz S DB R 50
2000000000	-7.05198880019541	-168.369565895832	0.518093827799377	96.9825673646232			-1.60973202715018	102.98181124246	-15.3499971039114	-144.597874875531
2005000000	-7.59991125403274	-168.896886223782	0.263776091923841	87.1594589866184			-1.70677146276059	105.338577119583	-16.6014963323868	-157.420582958456
2010000000	-8.08702941843403	-167.388793198671	-0.82332902694859	82.4640323435096			-1.34319496499571	106.447484473656	-20.2153435550274	-147.859374532123
2015000000	-8.51894263009861	-164.539833481851	-1.98969847647357	85.8561531080658			-0.931886909329366	105.371091233939	-18.9712100697486	-126.530216259425
2020000000	-8.85234302286669	-159.949016793794	-1.94283542994397	95.363797671781			-0.814876323283314	102.128538948365	-17.3552449045883	-134.151350336657
2025000000	-8.63344201043716	-155.423212545646	-0.503252203842663	98.9847961511395			-0.971890571473061	99.3536201224247	-16.8403195702417	-145.641717156482
2030000000	-8.24036027862962	-153.416979191954	0.912296918733362	91.8998870953339			-1.30069012165853	98.3673832208348	-15.525379857969	-157.351396486631
2035000000	-8.58059640517603	-153.059031174628	0.953122332090086	79.0210270978086			-1.46319247844003	99.301277950063	-16.109322871029	-176.818285804369
2040000000	-9.31816843258524	-150.148856863224	-0.261981498634038	70.3530433467995			-1.27480898880416	99.8372781934505	-20.7652848509909	-177.488681986276
2045000000	-10.0114776953723	-142.217700565383	-1.83258782609889	71.3782755031189			-1.02537783667903	99.1594195115847	-21.120644540753	-137.496535024829
2050000000	-10.4981546647106	-131.069111639156	-2.45399270713838	82.2780141313587			-0.917022904230875	96.9573033494553	-18.0068496301856	-134.979196686069
2055000000	-10.3366354999505	-118.474688049635	-1.09515501475414	92.28418212878			-0.910427746809469	94.7420762657964	-17.3221757879498	-145.232659591331
2060000000	-9.67078585074673	-108.479623935185	1.11026564993473	90.6420121338007			-0.974452465841632	93.3795872663567	-16.4678166948315	-156.773371331481
2065000000	-9.40560579547365	-103.377153757837	2.28891164633159	78.5497995872617			-1.07777725834126	92.3645391759906	-16.5122459533132	-178.282518012559
2070000000	-9.98005588854624	-97.2076200700902	1.74760190560492	67.1001081008373			-0.996885135329563	92.107761619504	-20.5342098832606	164.065974717914
2075000000	-10.8897428739423	-84.9136433806327	0.271727646377958	64.7038988623363			-0.857313040834396	91.6516396253279	-24.9844566273446	-159.721446715567
2080000000	-11.4069082698164	-68.1357125696649	-0.954127786158382	73.0336839924298			-0.752825484223166	90.5109241270293	-20.1606026149411	-139.595491287569
2085000000	-11.2600073842627	-49.8491383974592	-0.807053574663176	85.6374596227349			-0.659032593772402	89.5668897406451	-17.6845281368719	-148.631392674511
2090000000	-10.3964957061281	-34.0244432283198	0.794050411976087	91.6946677042865			-0.546282793238059	88.9840938300852	-16.1887800925829	-158.847760913714
2095000000	-9.43300658880476	-24.9692845535853	2.39300975286097	86.6449535026868			-0.427557092410644	88.4928340643014	-15.1172590350471	-172.112930479691
2100000000	-9.18684246079371	-21.1093405578073	2.73038166776877	75.5757244668256			-0.317281197112778	87.2936477814768	-16.1432905200156	169.413931227588
2105000000	-9.78357329860804	-15.1665693100178	1.81538044762088	69.1390561709628			-0.25674968992094	86.4482651589978	-19.2512274913257	165.381066592003
2110000000	-10.3893090777598	-5.54953040645279	0.668257627822517	70.9064897487358			-0.240904260707966	85.7637313268915	-20.5396071394322	-177.294687293426
2115000000	-10.5830276561475	6.08882115875693	0.136146871171269	77.8553955171767			-0.259384862535993	84.9086447422927	-19.0747382300917	-169.838639059404
2120000000	-10.1951068375239	15.8100442896717	0.588596151631628	83.9038588615798			-0.223434932858427	84.5889822620141	-17.6400805769726	-175.912089247666
2125000000	-9.61851276736123	22.1649307883085	1.54713881543508	84.521370530362			-0.238566175261807	84.3680670714517	-16.9511529301804	176.545815254739
2130000000	-9.34574002296172	24.6540879757869	2.07445605648254	79.6058677910237			-0.182220562925448	83.8921272187383	-16.935728338011	168.754361595849
2135000000	-9.60419516746425	26.5205836878293	1.82519651363548	74.4172264582986			-9.18083261775108E-02	83.5063437546542	-17.936603278261	164.425102436912
2140000000	-10.1653154823468	30.0891400664692	1.08914888050853	72.6760442086736			-5.95538094397789E-02	82.5729642019288	-19.4852842676548	169.759943863302
2145000000	-10.7884349760004	35.4707151542185	0.386175722664621	74.3829576500841			-6.62193595123333E-02	81.3663032814099	-19.8537037683838	179.774610138398
2150000000	-11.088615284855	40.7097208691907	0.189602206980672	77.8284382828488			-0.137406636157866	80.3891942845426	-19.1121152377115	-179.09791554154
2155000000	-11.1615625957656	44.326850854145	0.394707377778591	80.4751796696679			-0.296627075643282	79.885170415209	-18.5994672329622	179.332987046731
2160000000	-11.1482428378267	45.6011846581524	0.798518344990967	80.1493982400855			-0.339065979934211	79.8649846986121	-18.2633951214574	175.235346296702
2165000000	-11.035850476621	45.7569222506155	1.09301184875114	77.6767742076359			-0.263239787162429	80.2339029590548	-17.7615155929888	169.025464566557
2170000000	-10.9851373605951	44.6859974101683	1.02899002211881	74.6494498210994			-0.120110686891095	79.3824513965	-18.0226445948717	163.260217556278
2175000000	-11.3505900247093	45.0633825321807	0.648849250307456	72.7107083710053			-0.041278621370337	77.6324389617792	-18.7691239717591	163.709491683525
2180000000	-11.7559137177211	48.1987459983274	0.269834749448341	72.7536796106818			-0.114122527578559	76.2369528275863	-18.4545867168842	168.834744088179
2185000000	-12.060503458242	52.3092045198562	0.101476716920562	74.4797624633503			-0.307908335323627	75.2942187768509	-17.7077410397251	172.00028496593
2190000000	-12.2497562284203	55.8181743886627	0.255376841098147	76.1600489398449			-0.433824833725185	75.4038147673037	-17.3122246271708	171.318998545114
2195000000	-12.2746032792325	57.4177679056738	0.649459438826615	75.9398904797844			-0.390598618772838	76.2393716553994	-17.0298348806336	167.900457901852
2200000000	-12.2690689502255	55.1942839078908	0.924907757894357	73.3432186559564			-0.203811860114969	75.7406859717218	-17.5893983500727	161.030519484903
2205000000	-12.614722588961	51.9570755657406	0.783507194847514	69.8120299412315			-8.97111890818025E-02	73.8038778274155	-19.454502281735	156.695618624376
2210000000	-13.2417830585165	52.3514090215102	0.359668311666964	67.8624805821566			-0.144507010209043	71.7781743832238	-20.6105473978428	161.800045732849
2215000000	-13.6497200907338	56.1796084686016	-9.3503253468078E-03	68.4037473403102			-0.376888829182444	70.5532399478152	-19.7192082452417	167.833409970015
2220000000	-13.6849330145929	60.4203779976849	-9.50208841224636E-02	70.2931947494828			-0.612854154067347	70.6124326714289	-18.8498532962108	166.094348880284
2225000000	-13.5936565231328	61.7519741355043	0.20192210652289	70.9557158651813			-0.604667073909647	71.4689274571563	-18.5539436608434	161.187684305718
2230000000	-13.4955448775496	60.0014141672838	0.573015236072996	69.310545988098			-0.430412498548636	71.7788197674916	-18.7235849887582	154.294445039369
2235000000	-13.8356500293473	55.0367456060577	0.556404165737534	65.8515782290659			-0.228635635291423	70.1010824521042	-20.5380608164436	147.436275675494
2240000000	-14.6435513099984	54.5007274764468	0.197450986699945	63.6293910938847			-0.249818130776303	67.9236088029598	-22.1812086936712	153.586472401391
2245000000	-15.0579317831055	58.5883304076852	-0.19551165072379	63.6687402746418			-0.423292990172646	66.8329523946229	-21.2577041841903	162.244322483669
2250000000	-14.9626990974883	63.7556647124668	-0.350100977911924	65.4439870525525			-0.614797808326679	66.5707769493758	-20.134859571609	160.122967568778
2255000000	-14.8313493590909	66.2750044585517	-0.152874921664723	66.5167893510384			-0.635764020325968	67.35594800544	-19.6961263455001	154.388645190551
2260000000	-14.883099852604	65.2204308591324	0.171260911297601	65.2470912833388			-0.481965565367609	67.6193237561379	-20.0094951390135	147.110185353247
2265000000	-15.5759255616455	60.6084816602486	0.201684706014821	62.1990999175236			-0.267193856422101	66.1119347801252	-21.8474946472212	139.548979343017
2270000000	-16.7666086121907	59.8762740895957	-7.52563353745422E-02	60.0362808854153			-0.299648883966354	63.9801532259076	-23.8923908504254	142.513710491497
2275000000	-17.5367849342308	63.0117874095348	-0.392177933077896	59.9629930995389			-0.457253895717156	62.4412776121859	-22.8909622971529	148.279486894057
2280000000	-17.4115564579636	65.7454480876025	-0.507980960024684	61.4657297800496			-0.705295197688447	62.0458157092056	-21.6259246609464	144.467277844548
2285000000	-17.1580515028206	65.7801664596776	-0.287918249978191	62.513901602832			-0.774594979302034	62.6785161603446	-20.8944052436521	137.242693857748
2290000000	-17.0661310946362	63.6605192662114	5.14160710285723E-02	61.3453963436757			-0.633364271208463	63.2604502747456	-20.6193578272676	130.571398543615
2295000000	-17.5215442766186	58.8600227348701	0.126575366484964	58.5681945494837			-0.439947282856321	62.1542071864218	-21.3442526319598	122.762078059047
2300000000	-18.4583811418045	57.3340410251177	-0.125536174693464	56.5581996384608			-0.404560584037318	60.2321988746675	-22.7764011906818	123.755237107412
2305000000	-19.0397601347319	60.6899837217658	-0.399181195636564	56.2768519627156			-0.524844586997112	58.5907452828031	-22.3379858289813	131.999926626991
2310000000	-18.6404105041014	63.1312895957108	-0.520787408753103	57.268306248809			-0.72301673630598	57.9062057722148	-21.3879629808661	133.895227377412
2315000000	-18.0836469411505	62.4249801684387	-0.382877004574539	58.0732951802935			-0.855550866827406	58.2214247632054	-20.9736505256598	131.935392140702
2320000000	-17.7714051679391	60.3785450824364	-0.170240330831953	57.3472466209712			-0.767378390688629	58.6319521372424	-20.9699375219909	131.016812697401
2325000000	-17.9319042904764	58.1178719409399	-0.111982438963564	55.0647490906527			-0.631101015666129	58.1364449264018	-21.700689520604	130.085216534565
2330000000	-18.4890806240803	58.8275392004437	-0.260435707995701	53.2786742737037			-0.53581417578478	56.6944656060218	-22.6223315986179	131.792822775464
2335000000	-19.1965214058814	64.977486976143	-0.508396167319627	52.4498778229087			-0.587861556521395	55.2443921476251	-22.2391385155317	138.123250502088
2340000000	-19.2498864900051	71.2700983251521	-0.607118132205167	52.8359831932996			-0.721092731501832	54.3453666845622	-21.4783400642364	138.603659374463
2345000000	-19.0879339901765	71.733865849157	-0.613137886471691	53.3615964361802			-0.798230965099008	54.345572502786	-21.3127955146267	136.29390005811
2350000000	-19.6616519221416	71.1888839068261	-0.462636586316975	52.7739650145377			-0.843928509639039	54.2040064770522	-21.7925927815083	134.941867109634
2355000000	-20.4864949309593	68.6816807318525	-0.416527606879657	51.4332450209115			-0.787948225196277	53.8862558908318	-22.8725774919175	132.915274466612
2360000000	-21.1917798104122	65.5058730279091	-0.518417864990354	50.2124798831131			-0.738628802334144	53.114229996194	-24.2458638563453	128.635060456141
2365000000	-21.7189576945508	65.7965009013927	-0.660444551048318	49.6461358249308			-0.74475461213538	52.1158837057091	-24.843694435194	122.853827886978
2370000000	-21.8963623181927	66.3597656389721	-0.714716021375153	49.3800561842254			-0.781230956295057	51.2194057340914	-24.7102055583811	117.425460263522
2375000000	-21.552111363405	65.2278522245367	-0.681663741571466	49.3961380220675			-0.800840875083579	50.4931008343295	-24.3848861935562	110.962515892398
2380000000	-21.4475732314889	65.6449287866697	-0.629507037535405	48.7188738403871			-0.794855335646981	49.9663184965074	-24.2582877002122	109.444193617844
2385000000	-21.6227052246092	68.3334082272038	-0.574109919483958	47.7000442727366			-0.802578224109338	49.3271464318421	-24.3971025135197	110.298349855137
2390000000	-21.7548698929066	73.0007399681656	-0.611283622266941	46.6541548040696			-0.805127695294363	48.6186715108939	-24.4783287019793	108.285982277981
2395000000	-21.8949664747108	80.0660403741903	-0.713775784051058	45.7395818723213			-0.792411945293306	47.891824166186	-24.2022599471105	106.362533713745
2400000000	-22.0164895608304	85.8098275384404	-0.810408282577382	45.0869719276815			-0.822713289021397	47.1958949436404	-23.8120325963776	105.708829382817
2405000000	-22.2317150581244	86.7305332203155	-0.868602093363166	44.7962259966048			-0.853053845282674	46.5709923749528	-23.7653299720285	105.449251470281
2410000000	-22.7974258551051	85.3630562604018	-0.860011682627293	44.8478299051609			-0.900853470636055	46.0053847985192	-24.0146760730467	105.407121566924
2415000000	-23.3422588414925	80.5515500391546	-0.829487689293451	44.5950608384283			-0.967977960039229	45.6213356947232	-24.9271873176111	106.954473058507
2420000000	-23.6104334965848	74.9241588070973	-0.789996988299329	43.8133034647723			-0.971872593265335	45.2065546653648	-26.0300525006302	102.34263355597
2425000000	-23.2448192812699	74.05921801308	-0.764870874424028	42.667499119927			-0.953188523696	44.7715000491172	-26.6393867997952	94.5650338665366
2430000000	-22.7154411875334	79.6268430522938	-0.832177282856775	41.4415604461015			-0.868232433976019	43.8671530020651	-26.1200229621233	89.0151375506342
2435000000	-22.200594330168	87.0004026862178	-0.933647788815701	40.6798231728653			-0.842680478477916	42.7169646870315	-25.0954843868275	89.837044033398
2440000000	-21.5772527650456	94.2253504945341	-0.996453281498898	40.6781525357964			-0.892960480674571	41.8947320935989	-24.1297277776565	94.3879708356317
2445000000	-21.6556665465987	97.9941923475445	-0.998005949698976	40.9011955529128			-0.979195501233841	41.4246070883743	-24.0461557916584	97.7992708205794
2450000000	-22.7517126685589	99.0172710867816	-0.917857449830999	40.6975346514181			-1.05770003443779	41.35374044995	-25.409115092824	97.9891545872543
2455000000	-24.2165356531848	97.9970495683055	-0.837715538140065	39.8813971432183			-1.01607652620196	41.5051126604545	-27.43959650273	94.4531028863419
2460000000	-25.4224447443548	96.3728361643567	-0.877406715750177	38.6749379663339			-0.915533644928317	40.8237052113727	-28.6295396314307	85.1422097097367
2465000000	-25.8009253499218	99.3374995846992	-0.985986326434034	37.7229257227037			-0.857743502826175	39.6095696287213	-28.4971174573408	81.9143282366574
2470000000	-24.9217973518759	101.304812234632	-1.10504729524744	37.4328041006193			-0.900634112445356	38.1539241236227	-26.5224434548692	84.4778905162356
2475000000	-24.3977698589211	100.615166607089	-1.11606432920189	37.5564406139088			-1.0008981768292	37.3374223904404	-25.1750619301863	86.7612533369218
2480000000	-25.061283746474	99.2280834253302	-1.02453325710705	37.4985306338053			-1.11770166390031	37.3072110284074	-25.7370341735325	86.5150375565911
2485000000	-26.2945373701811	98.1368750195819	-0.912004189303511	36.5226709556615			-1.11521786189883	37.7550226208007	-27.3002429332099	84.6133517159252
2490000000	-27.0327365481928	95.5968029584307	-0.94061741335544	35.2313344458106			-1.00436449703374	37.4650417974514	-29.5069550972976	78.6183251808379
2495000000	-26.9718042911125	96.9005190884289	-1.05970944858445	34.4883031151788			-0.914606353208118	36.3322728289348	-30.6584410439666	73.3158028324444
2500000000	-25.1500575534523	97.1151584565468	-1.17043079858902	34.2965930212692			-0.910600452420737	34.6746841260071	-29.9329955825961	72.9919307807591
2505000000	-23.3435805021085	97.9359685057796	-1.17959102114029	34.4979090767314			-1.02888660660028	33.5366950336377	-28.828111373571	70.9965558722175
2510000000	-23.2562992634649	101.945399035115	-1.09062417271428	34.5163735899649			-1.13764245570818	33.5559326683112	-29.8508351524745	63.010456103423
2515000000	-23.9584570467669	112.845761784136	-0.974565628039722	33.6963659126545			-1.13549564835068	34.0002441759164	-32.6059741622702	48.5249291265149
2520000000	-25.2956228298427	126.574730401283	-0.955315888310408	32.4601096836913			-1.01705503294698	34.0003269169375	-34.7775326034508	20.5284951220517
2525000000	-26.9415322474603	141.135059230117	-1.06092561004373	31.4413343430946			-0.892855423807698	33.1417965577885	-35.0250100881075	3.15985287908852
2530000000	-28.3388162658735	140.630770592283	-1.16924572661584	30.8441412857764			-0.899726319978991	31.7044912365476	-34.947933907733	23.4638091915812
2535000000	-29.6329164439708	116.34218928944	-1.20549811696235	30.7126633391972			-1.02245255932801	30.3162500161428	-32.6232861769935	48.1855054970163
2540000000	-28.712628480886	89.0826749169245	-1.14909582545565	30.6667584405903			-1.17116492769662	30.0920089410858	-32.0522501086198	53.727257977573
2545000000	-27.2881773789765	85.9037638151254	-1.04650127145059	30.0046546627046			-1.20149472845277	30.3070754120192	-33.9691909965071	43.017135711012
2550000000	-26.387965565249	95.8878260958045	-1.02533710640813	29.1588034255962			-1.09214453053273	30.1987686407232	-35.6152219422265	8.48823622082287
2555000000	-25.3822474564761	112.808818508147	-1.08918430992331	28.2593139667105			-0.941448516253641	29.305566433736	-34.2129782766989	-15.3240752073933
2560000000	-24.0778992909634	124.815069996117	-1.15871455431737	28.0021471304196			-0.894225740304385	27.7645859835685	-32.1499770125813	-7.23909447526501
2565000000	-23.2608311206795	126.112240837783	-1.20424268323747	27.6547703830977			-0.958729955398408	26.329678171675	-31.1835398722422	10.3324736273552
2570000000	-23.5156289052882	124.661054103909	-1.18091411471897	27.4022857100084			-1.08822042357064	25.9145762003802	-31.2189023358461	18.9684343201139
2575000000	-23.8021267534016	128.416043070143	-1.10040604749158	26.7650763975514			-1.14397478517733	26.2569503900811	-33.8381343607446	10.4636650093222
2580000000	-23.6222160338081	137.082241537731	-1.06759052253028	25.9864683055971			-1.09619359000394	26.443664348797	-35.1124075110975	-31.7936938101495
2585000000	-23.4532059905298	149.305608798551	-1.09238091602988	25.6133471170889			-0.957883820471224	26.0237661320086	-30.8525922398352	-59.444774070402
2590000000	-23.2280641706328	159.334359634739	-1.12610152018022	25.2018125923481			-0.875312251975806	24.9899006881707	-28.9036963363781	-60.6645239336024
2595000000	-24.297703008155	161.320184492371	-1.14632262364089	24.4950715867705			-0.927718883123991	23.462373661576	-29.3827539918875	-51.0922221498943
2600000000	-26.9934273899168	159.212868168423	-1.11897117292429	24.1877175794081			-1.05034211371943	22.771695877625	-30.6267174401595	-37.3582470730322
2605000000	-29.4318593782136	150.823703130859	-1.09967786104699	23.4108839511907			-1.12622649188898	22.5710089916298	-33.3838862119797	-24.4534311577251
2610000000	-28.4066385028337	144.514444580767	-1.05470957415274	22.6787551081371			-1.08956828216982	22.3499940085476	-36.7431992176659	-35.5869115915912
2615000000	-25.4126338813016	147.35428578578	-1.04831568387883	22.0690998582251			-1.0149076415739	21.6279965048061	-35.0530458608232	-60.1725778148442
2620000000	-23.0297953647926	155.501723338664	-1.10355651498936	21.5971776897386			-0.918944236428918	20.8260699483485	-31.3055337218514	-61.9401359785954
2625000000	-21.9912249242863	161.775221034024	-1.12042987916732	21.322850470716			-0.923074558412759	19.6952347233464	-29.3941937325991	-57.4927655230322
2630000000	-22.9314829625895	167.940246721158	-1.14976845826896	20.8133709803177			-0.987161252017816	19.0364843013821	-28.8810270313428	-49.7163127717316
2635000000	-24.9125354366893	174.219031282492	-1.13860716448676	20.1118843109236			-1.05600651630855	18.9222246526491	-29.7971750186817	-49.5273283234423
