# Hz S DB R 50
2000000000	-13.2069489581157	-177.636490546265	-1.25063376932562	-26.3498444751574			-1.08989432985085	-26.3842135257429	-15.3578869558567	-115.95290755025
2005000000	-13.2329436630132	-179.031924367807	-1.24984539758478	-27.9769828222952			-1.11772321966352	-28.1760949363918	-15.3270841240457	-117.598641018474
2010000000	-13.1101394962471	-179.790159559334	-1.25092134216018	-29.1641320684757			-1.14862964902034	-29.5246394716619	-15.1658691137941	-118.677596887666
2015000000	-13.1715068885551	179.569158861189	-1.2585243978358	-30.399577572041			-1.21097479778989	-30.6084874446036	-15.1380912765581	-120.068350826788
2020000000	-13.0996361475946	178.860626565524	-1.27697896170773	-31.5708595329588			-1.25864739395233	-31.6954935958973	-15.05688581284	-121.099974290157
2025000000	-12.9701890769493	178.009132653086	-1.28772243985531	-32.7071245545912			-1.30019416943423	-32.8525431529618	-15.0736100758893	-122.116148466932
2030000000	-12.6912255990486	177.889700273389	-1.33409793457655	-33.6813789382187			-1.34004980956515	-33.7381665372557	-14.5389217646945	-124.137205367396
2035000000	-12.5576614123393	177.298874231695	-1.37334059273052	-34.7409396887242			-1.3676558849474	-34.8172025317145	-14.4011862601525	-125.606147859929
2040000000	-12.5924589273291	176.398558915492	-1.39772919424501	-35.7740413366408			-1.40841005925817	-35.8966924721963	-14.7076322938575	-126.730973004564
2045000000	-11.866717906694	169.182308646703	-1.38246613664336	-36.2577323138163			-1.43144575771145	-36.71923611029	-13.97250634939	-126.999285857575
2050000000	-11.3937708792943	169.232400176594	-1.40562027491959	-36.9685344151455			-1.4544006721755	-37.5515759204017	-13.7940239799261	-128.89312958963
2055000000	-12.1229245887606	174.903601476647	-1.46244502295217	-38.4546967118641			-1.48726030472885	-38.474100138208	-14.1403329032629	-132.408479442035
2060000000	-11.9089017574732	175.771833475595	-1.44891794790284	-39.2735490472567			-1.4543091587261	-39.1270537178706	-13.8895683634722	-136.385947548057
2065000000	-11.7826915460793	175.644683236887	-1.4381659033957	-40.2140846502108			-1.45225802056169	-39.9719539665924	-13.6768512013847	-138.066968379825
2070000000	-11.719100965106	174.087063552849	-1.42225336954539	-41.2892111771327			-1.48386494032571	-41.0928401583232	-13.5803390494748	-137.760825040772
2075000000	-11.7920255060323	175.517243603741	-1.41075348368826	-42.4439211157218			-1.45993151546508	-42.0967083842939	-13.6119230153523	-139.380280366835
2080000000	-11.6605733644968	175.371081244594	-1.42142260868329	-43.5830382163343			-1.4585560098625	-43.0892507672711	-13.451431656104	-140.862850154236
2085000000	-11.3297106730632	172.973678553425	-1.42481361537864	-44.688654190487			-1.44887910598672	-44.0640648392972	-13.1027166271214	-141.991884584385
2090000000	-11.3712594853117	173.544124374356	-1.43273949848129	-46.0079527197391			-1.44312657625057	-45.2252760926062	-13.1506586205918	-143.609202216305
2095000000	-11.276576393681	173.095261304287	-1.45361448337432	-47.1278365611444			-1.45512620550252	-46.2870305791588	-13.0360694904538	-144.89493292914
2100000000	-11.0833163808772	171.487936520939	-1.47519109176068	-48.2475620365315			-1.44445235699366	-47.3889707558359	-12.7858748981343	-145.900045029211
2105000000	-11.0167946170596	171.360573115579	-1.523024386214	-49.5716411134298			-1.46749231316851	-48.8575601781856	-12.8181216211057	-147.880360970406
2110000000	-10.9570054560613	170.49272610424	-1.5606633265175	-50.9767841054597			-1.4830718659528	-50.2506431730283	-12.7706351574495	-149.481868630551
2115000000	-10.9331506885877	169.252638248846	-1.5773007703431	-52.2343182148263			-1.48980026715341	-51.5845555812785	-12.6913079969808	-150.715142012398
2120000000	-10.6184156048838	168.777394474379	-1.60195316584074	-52.4020314618503			-1.48970616971445	-52.0410840160469	-12.4504041648429	-152.43450227103
2125000000	-10.544894354099	167.904297349964	-1.62093795157118	-53.4138494101158			-1.51761427558091	-53.2590863844004	-12.3752409936271	-154.212238226533
2130000000	-10.6223761637259	168.120749710833	-1.63792994783497	-54.2446159371034			-1.54017599898129	-54.084440394943	-12.3987138541511	-155.262400564967
2135000000	-10.5550248013146	165.757567726504	-1.62473304972095	-55.1078621726884			-1.54492711449476	-55.0884338831103	-12.0256515465983	-157.082130958795
2140000000	-10.4485087935679	164.893399050908	-1.61745812010003	-56.0559580284113			-1.56520186015416	-56.1833844242067	-11.9394198176902	-158.892857500895
2145000000	-10.3214779278169	165.272350877747	-1.64090120626695	-57.1107547500452			-1.57019691750212	-57.241848032137	-12.0861301118993	-160.979350061901
2150000000	-10.2507208980815	163.898834650729	-1.64663370587095	-58.1506850062633			-1.5713657167785	-58.2996098723474	-11.8667012697423	-161.091705353719
2155000000	-10.097614727429	162.937839505091	-1.62908557556332	-59.1847385583012			-1.57364235782487	-59.3434718010341	-11.7263061615463	-162.874102563468
2160000000	-9.93475748191667	162.148409688966	-1.63615477068756	-60.2122883558725			-1.5826594516285	-60.391944813189	-11.6485016659308	-166.387633879258
2165000000	-9.8036438646403	161.185412246538	-1.65888161811263	-61.3079961034892			-1.6110200681509	-61.5582973898616	-11.656296148672	-166.538766941665
2170000000	-9.6565330436732	160.158204803588	-1.67096532565487	-62.2690166314421			-1.61905852603642	-62.8490652253795	-11.5290666419365	-167.985805263752
2175000000	-9.57070653211592	158.781817774112	-1.66909643888542	-63.3941570721312			-1.65769692325504	-64.0025666541295	-11.2670504774887	-170.447076253404
2180000000	-9.35415291310504	157.741869849311	-1.69615479061025	-64.3087459877897			-1.67217357906427	-65.2275015147627	-11.2421764983636	-171.203475262921
2185000000	-9.26327385015786	156.654492063195	-1.72505480113566	-65.279048509086			-1.7038493042648	-66.3987878287219	-11.1121685654925	-172.218335323927
2190000000	-9.23873370575919	155.539667746488	-1.72678281944669	-66.3374024536859			-1.75459323518187	-67.5377655003257	-10.9129599958081	-173.240651452777
2195000000	-9.10372318070974	154.599178755881	-1.76263215699166	-67.2805511906217			-1.79839572678005	-68.6407785606056	-10.8242290551805	-174.234198319245
2200000000	-8.9993307877162	153.749345712746	-1.76412344673652	-68.2590303211993			-1.85568668418279	-69.7715865931666	-10.7355741416579	-175.058789750928
2205000000	-8.92948156985141	152.759549663131	-1.75966989267023	-69.3569197459322			-1.91314835197622	-70.7688545017971	-10.6470837699785	-175.471782981771
2210000000	-8.8926797719886	152.622679859637	-1.77406412208127	-70.430036717811			-1.97273883802117	-71.6027310465464	-10.5177641892315	-176.826654992592
2215000000	-8.826484322314	152.094420453682	-1.79708771731009	-71.521927232054			-2.02540419818617	-72.5200264083404	-10.4287332389451	-177.636970493598
2220000000	-8.72417253694018	150.730804290982	-1.8302250443778	-72.7201807771248			-2.07384746936835	-73.4508449183603	-10.440967009167	-177.890811581746
2225000000	-8.71237423994256	151.00724992939	-1.84371224137497	-73.8446331780715			-2.10726637149697	-73.9877465441292	-10.2219395688972	-179.996204680075
2230000000	-8.62767969219844	150.452115908562	-1.87804085330465	-74.9806908081482			-2.10776405272604	-74.8368464817026	-10.1316109812298	178.679468425138
2235000000	-8.48280959721819	149.156194884219	-1.92356113533235	-76.0467123126452			-2.13024044767679	-75.8191059997499	-10.1798980113798	178.194472859146
2240000000	-8.41867477501142	149.017010502611	-1.95891750140117	-77.0606868524622			-2.09593756903897	-76.5490108777999	-10.0038577512157	176.358501637497
2245000000	-8.319897055597	148.360281003083	-2.01446048224617	-78.0880696385517			-2.07145177641134	-77.5734063921065	-9.92078746972786	174.777520815484
2250000000	-8.19291416330382	147.404788121999	-2.05551192566409	-79.0750767781211			-2.06022824808083	-78.6102220322688	-9.87556699067401	173.533132285082
2255000000	-8.01578995547713	146.280805694757	-2.09280632021852	-79.7825036716248			-2.03734868280895	-79.7241150405507	-9.7911570690891	173.278401867608
2260000000	-7.94103220290078	145.443289087671	-2.13960940176146	-80.6956640980982			-2.01270286881645	-80.8562415421966	-9.677960443641	171.808317726796
2265000000	-7.9063062011695	145.368884773565	-2.1494176227242	-81.627542716849			-2.00855160620938	-82.1353929412606	-9.47177629158558	168.809374986424
2270000000	-7.82913340657541	143.242743683578	-2.09816746195427	-82.4497940152111			-2.02407938964675	-83.5461841816955	-9.5255433602686	168.377201495754
2275000000	-7.74313508575147	142.404840660044	-2.08660605535133	-83.3269923237288			-2.03188921654559	-84.9891346353279	-9.38686162185606	166.936573578603
2280000000	-7.57378483901149	143.025851826304	-2.10740344215045	-84.1514557504543			-2.07698517007331	-86.2235028282267	-9.04737047000819	164.777409128311
2285000000	-7.54717466254792	141.773827272375	-2.08511820944577	-85.470854197253			-2.12402933146941	-87.7610087501249	-9.02536393638941	163.706728436542
2290000000	-7.47285704623238	140.91640953265	-2.09202697436344	-86.7529713551285			-2.18498110102096	-88.9792617405758	-8.89365713574878	162.64574392865
2295000000	-7.37525657259353	140.51259710387	-2.11802335345839	-87.9147560053674			-2.27281425588478	-90.1427705814608	-8.73111647245439	161.589594075337
2300000000	-7.32625819275924	139.761587161757	-2.14067758521685	-89.4041546994359			-2.36918317882257	-91.2923997017144	-8.64422889108477	160.545855280916
2305000000	-7.26186992741033	139.119894499167	-2.18334256524332	-90.6069550722253			-2.45559043173667	-92.324757330401	-8.5210894897646	159.689118285019
2310000000	-7.19898358101108	138.230536330873	-2.21133305542481	-91.6935265115372			-2.53847760195767	-93.1782470755636	-8.46707116482047	159.321264260069
2315000000	-7.07931821670202	137.749918845682	-2.30312929133409	-92.8123218278609			-2.63169981498405	-93.9887110816787	-8.29308276535477	157.992520999842
2320000000	-7.01568646245506	137.10821345241	-2.37046223857309	-93.706196174192			-2.67626822758866	-94.7955084366772	-8.18514889916905	156.96581075098
2325000000	-6.9978926118739	135.959693398508	-2.40856991894244	-94.7390751944801			-2.7400035004338	-95.5710819767027	-8.17498193342915	156.578189457937
2330000000	-6.84773267715949	135.209251551204	-2.46817737877704	-95.504200106488			-2.78892391556835	-96.1703295257824	-8.01888983994294	154.845865219896
2335000000	-6.79940123540754	134.371487438936	-2.53166522276359	-96.3176505758027			-2.84072541181837	-96.7999625980772	-7.93566399450418	153.541204090746
2340000000	-6.83092665326183	133.229533442958	-2.56745839701478	-97.2516170133103			-2.87185568106272	-97.5779526522991	-7.97113451127841	152.57128686794
2345000000	-6.73915385986243	132.339327022522	-2.55696053087843	-97.7436681255376			-2.86794769409606	-98.0890832511013	-7.87578933883516	151.139374261851
2350000000	-6.7330631206946	131.282277278029	-2.56171683430515	-98.5230870387426			-2.83784972239895	-98.7507924587739	-7.80735702110016	149.800873153966
2355000000	-6.75831527421479	130.272280102203	-2.57825957119163	-99.6773962587501			-2.85686143776976	-99.7637570630695	-7.78760651688432	148.454725904414
2360000000	-6.81001214072725	129.880532083911	-2.56765562818004	-100.596238313139			-2.822637624391	-100.663170272128	-7.78923163985649	147.97790308297
2365000000	-6.77030983873816	128.792579433605	-2.57181476721373	-101.73034942025			-2.81720776356565	-101.720958078494	-7.73613203537255	146.635435158577
2370000000	-6.65609717748229	127.371635599572	-2.60875173768443	-102.837805098721			-2.82429387884029	-102.810303201591	-7.58384408268496	144.359928876275
2375000000	-6.72812606452839	126.811373698379	-2.64171196678117	-104.011088848101			-2.81927836014253	-103.981697701239	-7.66236616188836	143.986954244434
2380000000	-6.68656187287402	125.73489597591	-2.6606572760207	-105.068248710614			-2.83756404789198	-105.149745328917	-7.58403218379364	142.79106632289
2385000000	-6.56580422137352	124.190769698241	-2.6918354902893	-106.13734253316			-2.87216500326771	-106.390675070001	-7.34251981126713	140.819303433592
2390000000	-6.54604489635048	123.26224067766	-2.75567524982637	-107.085802415913			-2.90053370035311	-107.539938252163	-7.32099527657638	139.849302647249
2395000000	-6.4880444535848	122.166211160227	-2.7947285338856	-108.062721450708			-2.96114007194169	-108.801707321146	-7.24012225773046	138.706798828629
2400000000	-6.36240221569971	121.09816077475	-2.82391962475428	-108.869767881397			-3.01979243147832	-109.713857421914	-7.05413807994779	138.128069444371
2405000000	-6.27592658496851	119.570360789645	-2.85721545018239	-109.586493588383			-3.06494097426701	-110.877818021322	-6.92649470756846	136.630102820595
2410000000	-6.19125533045672	118.33873261585	-2.88777220585273	-110.384538979803			-3.13943209571007	-111.835761800891	-6.83509141217697	135.642058275788
2415000000	-6.09709616997521	117.737306661178	-2.90818633424506	-111.118678752956			-3.20532047231802	-112.587680059115	-6.79935068540438	135.389955347899
2420000000	-6.0185791268728	116.119969746648	-2.87975363006935	-112.007761979709			-3.25888697203894	-113.436817876883	-6.66327896198231	133.913903564024
2425000000	-5.93719541136738	115.215313483735	-2.83885165008416	-112.903811574506			-3.31060586281222	-114.198513509566	-6.61407720312234	132.979325510626
2430000000	-5.84335763178662	115.046081680568	-2.8493269262245	-113.69086605497			-3.31356996572399	-114.933284814413	-6.5869387749061	132.521736877506
2435000000	-5.78656999244966	113.847768033246	-2.83618868318121	-115.077142118057			-3.35013559671662	-115.636004601451	-6.48986250544572	131.407396991127
2440000000	-5.72861388275738	113.164225142112	-2.8530659343976	-116.318658527787			-3.35353412646853	-116.425420830483	-6.43549728788552	130.597692288491
2445000000	-5.64015924525971	112.599695430126	-2.89138795235318	-117.366958500093			-3.36134615452732	-117.331220115455	-6.40416117694278	129.780617825212
2450000000	-5.53471985024956	111.989029912437	-2.96013684655219	-118.698008675054			-3.38842174773639	-118.327580238436	-6.36309395296276	129.133742697481
2455000000	-5.47825207349873	111.363002965336	-3.0215206422861	-119.753100783925			-3.38765244138925	-119.327445365902	-6.26414555227428	128.293878870744
2460000000	-5.42649864481105	110.582833269349	-3.07263144013511	-120.709210818066			-3.39766146690091	-120.423372194509	-6.17254477894759	126.939821764662
2465000000	-5.32461713403242	110.166980406946	-3.18722722798396	-121.495001164671			-3.44000147566566	-121.412687659844	-6.11989134589571	126.924594979257
2470000000	-5.26990491552566	109.728404766968	-3.26212400727007	-122.236942071109			-3.47981827183187	-122.580351383772	-6.03685223882265	125.939249234601
2475000000	-5.27429374136626	109.035435693706	-3.30488160620047	-123.010780994669			-3.53213189231874	-123.67437846166	-5.90979779206351	124.058139246591
2480000000	-5.18550449313143	108.508918171894	-3.36208359365235	-123.217073050201			-3.58864370728215	-124.627153851858	-5.88416281971168	123.698228399366
2485000000	-5.16471923986039	107.833764312683	-3.39125838024211	-123.686131195714			-3.65860572598646	-125.551255564532	-5.79844549060123	122.78969343682
2490000000	-5.18150567480805	106.943117207919	-3.40118473999054	-124.452703356836			-3.74255941215086	-126.479073859998	-5.65267746484223	121.446296334282
2495000000	-5.20815822966006	105.964786615165	-3.33475957059415	-124.696360876489			-3.8169646519217	-127.245730890081	-5.59766201164317	120.008897158056
2500000000	-5.21904362484065	105.248398728178	-3.28999372199945	-125.507752058518			-3.88278816579854	-127.888344120192	-5.52205498492364	119.065379530814
2505000000	-5.19360478862084	104.605443702866	-3.29558853942813	-126.615715269388			-3.95799082337618	-128.442808068156	-5.41679554321366	118.71372330125
2510000000	-5.32985639809073	104.424507502579	-3.21546381248321	-128.002215101374			-4.00198934856298	-128.79092912819	-5.33667043346418	117.384090099251
2515000000	-5.3371094648668	103.656279699254	-3.19054713029295	-129.339332559256			-4.0449265495511	-129.228845439307	-5.28570966478475	116.555998509935
2520000000	-5.17897436407707	102.232624035544	-3.21770425392453	-130.454878197896			-4.08072982498351	-129.76945131077	-5.26379223005024	116.462436343783
2525000000	-5.24105293293865	101.732756436588	-3.22781795632275	-132.085572007166			-4.05278259831758	-130.124966185205	-5.18531902383449	114.861617609387
2530000000	-5.19291513985532	100.773133140955	-3.28283448502328	-133.549533914344			-4.05216026873371	-130.521694019525	-5.15042786437932	114.004775632107
2535000000	-5.08337969613067	99.5793911593388	-3.36517012889502	-134.611596681619			-4.02124358426246	-131.224033035694	-5.14064657494915	113.348241173908
2540000000	-5.07115170290455	98.3759802590591	-3.46831202681629	-135.899460108013			-3.92171177121783	-131.996660556176	-5.11090389115618	112.117173058907
2545000000	-5.04109640562249	96.5433862222288	-3.58971609446289	-137.783696099955			-3.87647540713262	-133.723370346124	-5.11047981371385	110.189801278694
2550000000	-4.95545457396485	95.5693761443607	-3.67932145747308	-138.949611450121			-3.88973376302822	-135.118048785897	-5.0777018723806	108.921216472205
2555000000	-4.87478718383924	94.5310041104657	-3.77290652890233	-139.196068618882			-3.87027325785882	-136.49873989026	-5.10568331535065	108.853524527373
2560000000	-4.79617798128988	93.9559866818836	-3.83279338796758	-139.360606336641			-3.86152701103499	-137.535298669236	-5.0903856927344	108.267098006474
2565000000	-4.75428390128226	93.7368878454639	-3.89804746322158	-139.737620563214			-3.85696847251753	-138.355695970378	-5.02308623432327	107.110040232871
2570000000	-4.66816234725107	92.1966139919089	-3.91346922193261	-139.925357122805			-3.91477281986829	-139.805977933339	-5.02584173673482	107.042656507522
2575000000	-4.57984068372738	91.1382318623494	-3.90995953055216	-140.479934561467			-3.97662765330484	-141.239332391646	-4.99489926956265	106.193365459742
2580000000	-4.51860307163586	90.7471992685749	-3.92593321693445	-141.098934410944			-4.0471383914482	-142.49144511692	-4.88628609603005	104.719797346784
2585000000	-4.4613223836746	89.4614963838281	-3.86061005299027	-141.790916925404			-4.16860560802378	-143.752549866108	-4.91861362644722	104.18834639179
2590000000	-4.40215341379124	88.5264613667522	-3.81351479590817	-142.751693032863			-4.29417633737233	-144.928884072208	-4.86721686301623	103.443089821071
2595000000	-4.33428030767748	87.7881598413642	-3.83437065716947	-143.621959553622			-4.4029632685489	-145.948518311933	-4.7510790500659	102.48137730351
2600000000	-4.29261715767167	86.9856268858978	-3.84314990610825	-145.003894502018			-4.53079163353971	-146.700954290485	-4.7310349615072	101.550941003503
2605000000	-4.26608960395385	86.0735500042571	-3.86705594627681	-146.226813869153			-4.63240454787512	-147.331280186037	-4.66689020023387	100.888686074945
2610000000	-4.20081265252496	84.7980268486774	-3.85936681589497	-147.189285704777			-4.73722865025498	-147.96147604767	-4.58779313803004	100.878937172369
2615000000	-4.14058975199128	84.2771235102475	-3.95570648775722	-148.199103742578			-4.81889300433705	-148.339015676236	-4.50312218538228	99.5795483358375
2620000000	-4.10227493170474	83.4424246922367	-4.01786636880131	-149.099639371481			-4.88963860394336	-148.631422648592	-4.46214751622089	98.7807539964567
2625000000	-4.11717136361257	81.955327498407	-4.07454737181447	-149.973337626841			-4.96980541706518	-148.8898280286	-4.47536854934673	98.7262520455745
2630000000	-4.06428474650509	81.3316906359792	-4.1540819468983	-150.620760728742			-4.98118087926089	-149.187355539966	-4.40171688100277	97.3041568040878
2635000000	-4.05354480068832	80.1476366371144	-4.21155978402397	-151.347426413578			-4.99181799749721	-149.514730689411	-4.376214076723	96.4993814128836
