# Hz S DB R 50
2000000000	-16.2419534858819	162.157900050371	-0.69724716524428	-2.05529388081673			-0.380451497429335	-2.22021389654516	-16.4015584306138	-20.9317441631552
2005000000	-16.3483128699545	159.680217615836	-0.672139636835672	-3.35830224269886			-0.39904200224277	-3.73159387366449	-16.4140795426778	-21.9871978716105
2010000000	-16.3701645331132	159.904404053773	-0.650687999163095	-4.15547886199578			-0.432045511098726	-4.9053556490241	-16.3590383999649	-24.482150930461
2015000000	-16.5493446391049	156.96451845661	-0.605201048107032	-4.94896007425069			-0.461119385809982	-5.91405617779345	-16.5033348158386	-24.0633491551804
2020000000	-16.6487775162458	155.621817032418	-0.553727621475599	-5.94649233374663			-0.502322284121111	-6.71879251107145	-16.6152826466347	-24.6484658324008
2025000000	-16.6476830218034	155.314908627229	-0.542635245317154	-7.05432779920793			-0.530374051815625	-7.73687252279754	-16.646364300989	-25.2835833601671
2030000000	-16.6653385723502	155.983936872999	-0.516813989768532	-8.07587903779152			-0.546628029710858	-8.45401674037815	-16.9181367436564	-28.855717047318
2035000000	-16.6418015568122	155.3104330078	-0.524282640409641	-9.20740861758703			-0.568309524866859	-9.27599470422017	-17.0142191954414	-29.8521828904856
2040000000	-16.6902928731621	152.989886473656	-0.536925152724558	-10.2410133961909			-0.586776575962195	-10.1794362378018	-16.9589636024905	-27.3959260318336
2045000000	-14.4121582976771	154.417014621618	-0.606273671240518	-11.0869863495118			-0.558239471632691	-10.971414929567	-16.5274152191244	-34.9334539998264
2050000000	-14.2046819708505	157.50084927624	-0.631390614559865	-12.2233158439547			-0.586540080746855	-11.7897678197281	-16.615898213515	-36.9435932534385
2055000000	-16.5422405409991	151.686729747217	-0.604014760148643	-13.2859305300186			-0.609063319949449	-12.5325143505875	-17.2004033823729	-32.7648267263158
2060000000	-16.3639797578343	152.882193019859	-0.638069919362613	-14.0598066627077			-0.577147198815563	-13.2990496417224	-17.5716683248204	-40.3454575059619
2065000000	-16.3808949012284	152.257348402978	-0.660149180392269	-14.8488695621565			-0.569097542904387	-14.1487037592759	-17.5048604224395	-43.0369434081359
2070000000	-16.5799549970717	150.258596151826	-0.668870680117319	-15.7538445487209			-0.582592320145377	-15.0422737418151	-17.3455736324675	-39.6719153184492
2075000000	-17.0211944046215	150.431362971326	-0.677911784829142	-16.5918306109441			-0.560455804257241	-16.0103407283996	-17.3875833246304	-40.1741523709781
2080000000	-17.1470800040531	150.385458043398	-0.669847459675131	-17.2986732032692			-0.560992812937315	-16.8874105542116	-17.3522400821765	-41.845343098356
2085000000	-16.7716450100982	149.298564734149	-0.683444196198754	-18.0520657044717			-0.545127049731797	-17.7199275036781	-17.1137368538747	-44.7070509921142
2090000000	-17.2856664410621	148.439597123465	-0.642993545302578	-18.8600893424539			-0.539931308996325	-18.7263858210815	-17.0730422836065	-44.0747550452844
2095000000	-17.4907796329245	147.914263803129	-0.637629475742714	-19.820809392526			-0.555080300083689	-19.7856535179281	-16.9814197663366	-45.2682009877202
2100000000	-17.2134547638054	147.501772425136	-0.626519815944481	-20.5938764735899			-0.547189440309446	-20.7440640870567	-16.7264935804981	-48.2225241248269
2105000000	-17.7724699082149	147.819998900449	-0.610872680926575	-21.9782440449311			-0.561995866650919	-21.9910567414913	-16.8061774318652	-47.7080749710901
2110000000	-18.0237214055952	147.63907218685	-0.614590668883578	-23.2622597080345			-0.57253672206983	-23.2679404918142	-16.7705586363621	-48.6050497606611
2115000000	-18.0019604776791	146.122325561134	-0.614577174320019	-24.4362724474984			-0.588067139716568	-24.4949238516809	-16.6722704101688	-50.2381881841687
2120000000	-17.9783015836283	150.850944580806	-0.599096950765032	-24.9163609021161			-0.560737117345434	-24.6989696221533	-16.9409170326427	-50.8716190614479
2125000000	-18.0930437771328	151.034226849499	-0.597327070206707	-26.0119607676246			-0.570192916437056	-25.7361677005084	-17.0601307347624	-51.8451765278919
2130000000	-18.4353615557895	148.910026030107	-0.595579499153502	-26.6593023109971			-0.583904616522062	-26.4580399050353	-17.1241553083	-51.6228802829434
2135000000	-17.986110697603	147.457281092252	-0.60447623151171	-27.5548655263637			-0.570546183522196	-27.3214654343766	-17.4547877197754	-55.8007444170767
2140000000	-17.9339478653889	146.892415582898	-0.606557529051227	-28.4429481180259			-0.563891059258618	-28.2555630985597	-17.7633933726114	-56.9127758249581
2145000000	-18.3513646682381	148.796058975782	-0.608138812732218	-29.3622073650881			-0.587686079334026	-29.2169266965947	-18.0556550241958	-54.5553011349315
2150000000	-18.2096758417003	145.692547579949	-0.611881398081691	-30.300805573595			-0.570565082971018	-30.1830009986817	-18.0253740646343	-58.6910682948674
2155000000	-18.1883331074718	144.89612515952	-0.604096187601316	-31.0511356819909			-0.571450263829759	-31.1587449647167	-18.3186075213762	-60.7548202049373
2160000000	-18.2017320468723	145.841901291769	-0.600759821115318	-31.9653342584374			-0.583228506168631	-31.9378342255398	-19.1900302523114	-60.5962985396354
2165000000	-18.3151148295443	144.070043354389	-0.591349045799973	-32.8864191002639			-0.598882627283949	-32.9993818567375	-19.0553858324643	-61.7367205961208
2170000000	-18.3725596509789	143.670219496599	-0.577895680132461	-33.6646220541515			-0.605525622253723	-33.8854608286541	-19.2871672524142	-64.0239458112451
2175000000	-18.4161964687534	143.481323844127	-0.553267217745673	-34.5876244137838			-0.597432237425932	-34.7633986637276	-19.9602674927009	-68.628595724231
2180000000	-18.3732678525446	144.604156310674	-0.552165146853011	-35.6040170841952			-0.616060350868459	-35.6653409480917	-19.9084190692525	-68.3783344429316
2185000000	-18.3873915384977	145.261235439678	-0.548452516855119	-36.4505487429796			-0.612688752195042	-36.562882766114	-19.9537211352418	-70.7026541922978
2190000000	-18.6275134927545	144.388469207796	-0.556070607701994	-37.3924143729449			-0.610239755162607	-37.4731754503134	-19.9931366859652	-75.7131221082796
2195000000	-18.2973189302327	145.969532649265	-0.56104845033932	-38.2708086123566			-0.617760402284051	-38.448441399995	-19.8485784115442	-75.2855197083563
2200000000	-18.2726719585561	146.678592862982	-0.563777492497745	-39.1957058239705			-0.632168825155775	-39.3734138953281	-19.6446437275229	-77.0369461286894
2205000000	-18.554773986157	146.839947432249	-0.568952900293216	-40.1837738935529			-0.645673184427085	-40.3218075583689	-19.4031647746753	-79.831578848148
2210000000	-18.4800952253516	148.155569780751	-0.569146842683389	-41.0319338863025			-0.647717927363416	-41.1893480806531	-19.2917956802192	-81.0071348659811
2215000000	-18.5192258176587	148.645758795254	-0.573429028638208	-41.9820398301039			-0.659957497107353	-42.1203448989143	-19.1325393625463	-82.1187700605699
2220000000	-18.5335909688672	148.628851764391	-0.576751998349762	-42.9736729598315			-0.697289438594982	-43.0384896976109	-18.909730665999	-81.7980407523063
2225000000	-18.9551629106198	150.75827707036	-0.562486240325363	-43.7716108292503			-0.689036105559908	-43.7872717525582	-19.0247049953243	-86.7992530364696
2230000000	-19.019190373661	151.762847850839	-0.547494027993307	-44.6603570758308			-0.691740414504175	-44.6116553794336	-19.0776675295393	-87.8378860902456
2235000000	-18.6535653198332	150.523932122365	-0.554222488026609	-45.6058193863199			-0.700431878720923	-45.5683915186322	-19.0052951454317	-84.2515769385651
2240000000	-19.0678652373107	153.524682759155	-0.541518500046257	-46.5700592144998			-0.656643027383667	-46.385497519816	-19.5893732081686	-90.460206509785
2245000000	-19.0810310849494	154.287404208364	-0.537241798411757	-47.5423318397688			-0.641950744132103	-47.3033435727606	-19.8320104388799	-91.7007760962303
2250000000	-18.8439452722215	152.440083090442	-0.543958202263747	-48.5671937011159			-0.645029275049573	-48.2948414105029	-19.7384211764303	-88.3060197062611
2255000000	-18.5481667533635	155.232074752549	-0.531172718124638	-49.5563725257536			-0.618991065749496	-49.2425481171373	-19.8997049201426	-91.6001634736668
2260000000	-18.6137807904664	155.574570558519	-0.54453475948761	-50.5935739690942			-0.612925843771744	-50.2720116346617	-20.2207305346348	-93.383582045015
2265000000	-19.0452055250399	154.678993478112	-0.541612683985531	-51.5818511663692			-0.599252424717541	-51.1144696845781	-20.7805150304933	-95.4688405887768
2270000000	-18.6345477997087	150.973256338866	-0.531296498781492	-52.4483949608661			-0.58975918498444	-52.1805560784251	-20.5837308367427	-93.8780552018949
2275000000	-18.6369825755329	151.982589873641	-0.528193055827819	-53.2348946165944			-0.600772480856613	-53.148945737063	-20.7627197809337	-96.618412585826
2280000000	-19.0025355076466	157.885664639015	-0.512421319184981	-54.3255474989225			-0.60142867973357	-54.003896456756	-21.3883975264684	-105.847827645949
2285000000	-19.0657640725632	155.519982232105	-0.517896288244738	-55.2017984993131			-0.625987127205366	-55.21299945226	-21.2920228786167	-104.908612007443
2290000000	-19.0384797307108	155.970936752787	-0.526317558806664	-56.3482257616235			-0.628311453541361	-56.1940793874083	-21.2721600209903	-107.892293643076
2295000000	-18.716352983733	159.900033058771	-0.545816562123461	-57.2023501877303			-0.636249918327029	-56.9774112799771	-21.1124107849133	-115.071048678499
2300000000	-18.8699310062644	159.130215747325	-0.529654442968613	-58.1874574352534			-0.664005591024005	-58.0309082306891	-21.011048990793	-116.079448244503
2305000000	-18.7704428561576	159.837200275056	-0.537379001667306	-59.086365016535			-0.672364489849164	-58.9316612005897	-20.8032772098431	-119.190414350436
2310000000	-18.4626833037046	159.732609703544	-0.527392302642689	-59.9042191264252			-0.679274941281277	-59.8192265794918	-20.5658542053574	-122.473400734241
2315000000	-18.3299131531838	161.296530554882	-0.534500407882706	-60.7353010678896			-0.685481840273807	-60.6170942059126	-20.3654234345817	-125.277169224892
2320000000	-18.2167461176282	161.355617822034	-0.539613434712906	-61.6718358791334			-0.698933047106515	-61.5472159258207	-20.2316655717991	-127.101221778485
2325000000	-18.2436093150334	159.972339546882	-0.540678633928949	-62.6432495797348			-0.713434649204715	-62.5061766972022	-20.1965550297232	-126.61062651739
2330000000	-17.8053325557307	161.030095116738	-0.533684399344964	-63.4950093976741			-0.708848476856213	-63.3747990527233	-20.1494276745832	-131.884319500366
2335000000	-17.789971055015	160.589707609048	-0.536822849593851	-64.5087739615638			-0.721092673762289	-64.3624460590963	-20.1989246780638	-133.776749515623
2340000000	-18.1274585908347	159.858129090216	-0.537629999038631	-65.4746407106097			-0.729401263828742	-65.2460625198656	-20.4497003887965	-132.135729719111
2345000000	-17.6213134135973	159.180214427427	-0.528469011264857	-66.2848834809483			-0.715896425878029	-66.0949899223581	-20.571362857235	-139.606417601796
2350000000	-17.6635434457602	159.153301134726	-0.518492701862196	-67.1851574439793			-0.7084195990735	-66.920017482051	-20.7755065460615	-142.185140871196
2355000000	-18.1844384484432	160.310399039123	-0.517963170273716	-68.2482087024498			-0.71902239495264	-67.8665628568827	-21.1926694305823	-139.800483380364
2360000000	-18.2937375036135	160.355707059317	-0.516546985642106	-69.1526936144379			-0.705551164391131	-68.7910977182662	-21.4248359668527	-143.714058756349
2365000000	-18.3338521277341	160.892390881708	-0.526525993047451	-70.2400675801555			-0.69289771047339	-69.7521318666381	-21.7259846103551	-147.03612209987
2370000000	-18.0998055381721	161.349698226898	-0.525427450673766	-71.2683432886249			-0.682212370990856	-70.6568831105306	-21.9662572561831	-151.894822507339
2375000000	-18.4204215179337	164.072298517968	-0.546767644225252	-72.2552009562768			-0.694135160566576	-71.6852023283298	-22.3226768665438	-149.407989729078
2380000000	-18.316697435417	164.268770741655	-0.545827920510261	-73.2533836191145			-0.685851188514502	-72.5275567249751	-22.4076127493573	-153.7869829227
2385000000	-17.8726878036231	161.1285189547	-0.545168312042489	-74.3259259847039			-0.658541918436072	-73.563462197889	-21.9974501446127	-165.637257508137
2390000000	-17.9751015323136	162.991417829463	-0.549760123321812	-75.3087298608065			-0.662372061528732	-74.5011792335731	-22.2302034554134	-165.446331868435
2395000000	-17.8137737139794	162.647565503689	-0.570964621417975	-76.2234959135153			-0.675910368172153	-75.5196357132593	-21.8260933389852	-169.6457280806
2400000000	-17.4496639294641	159.803242125468	-0.556601223273543	-77.0221897185011			-0.662941613855136	-76.481005145364	-20.8839411099484	-176.955950104284
2405000000	-17.1899770235129	158.547604621478	-0.560283780007026	-77.9727625117485			-0.665306599115524	-77.5796546142343	-20.5848708997822	-179.580916920671
2410000000	-16.9884296032007	157.065821676391	-0.56128107013959	-78.8587830906355			-0.677026332941533	-78.5468732125197	-20.1033009492926	177.959289562527
2415000000	-16.8686244881529	156.637270596562	-0.563215242306671	-79.7785704725684			-0.688984727935559	-79.4740614337331	-19.6019577072448	176.436182235168
2420000000	-16.7267399683202	152.860467760837	-0.534063239336526	-80.714165446051			-0.693133152580625	-80.4909326807156	-19.1205241643244	172.404202880446
2425000000	-16.5992727928719	151.83560906865	-0.53354773866094	-81.6788628653464			-0.702063441271857	-81.3547107241515	-18.7761870957503	170.635221759673
2430000000	-16.3503405239008	153.670082649636	-0.542825030606738	-82.6807093334424			-0.710498556525701	-82.1208461982901	-18.6813359767098	171.126299338748
2435000000	-16.4383629394767	151.492302500471	-0.518540462646284	-83.6691062395897			-0.714331542505339	-83.0550784995672	-18.2549015421236	167.231274348924
2440000000	-16.2795263870008	151.064069675597	-0.514984989707415	-84.7225591980911			-0.719863817525813	-84.022008509451	-18.0795357454741	165.878601040299
2445000000	-15.8774292649319	151.617127950327	-0.541990340558254	-85.6997567148449			-0.718067371110101	-84.9344359753326	-18.1032892893874	166.512609881129
2450000000	-15.7881892623389	151.551256614849	-0.553213143520723	-86.7901807801748			-0.699802078258664	-85.8841119387174	-17.9003360788466	164.258926197262
2455000000	-15.605589876732	151.319574864546	-0.565960232556751	-87.7512531372419			-0.711320853416001	-86.854644717015	-17.8167997117296	163.018793311884
2460000000	-15.4972071825203	150.521969907498	-0.597479631934935	-88.6480176378651			-0.705177125790729	-87.8602043118728	-17.719832686753	161.436609714266
2465000000	-15.1532263704598	151.46317771272	-0.628092421610645	-89.4877475123768			-0.698834224960832	-88.8490450491073	-17.5803651946321	162.170886008286
2470000000	-15.0074854843228	151.528254498332	-0.644826528523067	-90.342199697907			-0.702658324356876	-89.9153092879754	-17.4438374500688	160.575310543274
2475000000	-15.0837327775037	151.007653666793	-0.646812640606426	-91.291447192611			-0.719443339438304	-90.9843899363038	-17.2420734080579	156.068667540388
2480000000	-14.6438591391068	151.052424833553	-0.671142137116162	-91.9373784016828			-0.727861173010989	-91.9629374360648	-17.2195696181462	157.685576551218
2485000000	-14.5298840127699	150.814566689893	-0.668692368868328	-92.7321007196085			-0.734600614972853	-92.8984759405502	-16.9926384488731	155.704310665105
2490000000	-14.7411857760274	151.153738187186	-0.666180187651814	-93.7255498931642			-0.757357573121276	-93.9056256542728	-16.6018891156295	151.130978174194
2495000000	-14.4875668359977	148.328992104945	-0.644174434260821	-94.3302613185364			-0.794999365179807	-94.9460606955735	-16.5554634687834	150.261908220099
2500000000	-14.4537510191053	147.941742829651	-0.633139385884183	-95.2946078583239			-0.804957324765283	-95.8627955331783	-16.2816731864317	148.474417067565
2505000000	-14.4729026521562	149.956533078595	-0.645314579090812	-96.3913500420501			-0.844858187398534	-96.5736348874427	-15.8349538598295	147.068563090371
2510000000	-14.981108161006	150.366174558643	-0.611876166509132	-97.3999699620225			-0.870403358630611	-97.3224180420076	-15.5290623210206	144.883929941733
2515000000	-14.9879781129974	149.970556942306	-0.596357588754441	-98.421886180864			-0.874296534804482	-98.176446495645	-15.272062998596	143.434762042547
2520000000	-14.4162425135275	148.120413538039	-0.60767016425748	-99.3823244728785			-0.900539751455345	-99.0790309089391	-15.1604133707367	143.530804580211
2525000000	-14.6510166268718	149.76111450905	-0.611796195156375	-100.625548276038			-0.903675378809147	-99.6528350091791	-14.8168755894752	140.124993448895
2530000000	-14.5905662193753	148.910500083941	-0.617029567448517	-101.673881968102			-0.895867217204157	-100.378631867107	-14.5969929042779	138.900578372357
2535000000	-14.312448471554	145.437338730687	-0.630652429398281	-102.687530036891			-0.914161006495267	-101.251358019895	-14.6233557888506	139.428828686971
2540000000	-14.3468583937808	145.525377736193	-0.642563374675364	-103.755610462356			-0.883176517391306	-101.914081287351	-14.4649325538694	134.85305815847
2545000000	-14.4102930261627	143.483891549761	-0.691729054927334	-105.612171908227			-0.874701329435268	-103.46758404374	-14.4560078541464	132.476955706464
2550000000	-14.3310222536592	141.407710539637	-0.705712895203486	-106.659788674976			-0.862637213546497	-104.797122738541	-14.3867675705867	133.119010204099
2555000000	-14.144477661464	140.397165430234	-0.746796627004301	-107.182750286426			-0.832265989728153	-105.569776373381	-14.6007747677723	132.092420965159
2560000000	-14.0281911020836	139.427869269413	-0.764908847809407	-107.717250490745			-0.814584418071658	-106.26824446098	-14.5269391858437	131.143068246653
2565000000	-13.9594064654265	139.374269386884	-0.758941980542226	-108.335004278837			-0.809129319485487	-106.937894636793	-14.0981522798515	129.493265822569
2570000000	-13.714528030946	136.49561283556	-0.766242259796833	-108.846582073908			-0.800483858674189	-108.101426289664	-14.141524905558	130.171285336547
2575000000	-13.5923130926434	135.298761661547	-0.758798276311659	-109.639903193057			-0.787005919623113	-109.201153619333	-14.0578854736597	129.046298169908
2580000000	-13.4960847374433	136.453502104882	-0.788165246622873	-110.564755098726			-0.78041637514681	-110.236640425669	-13.8031599891698	125.983218341681
2585000000	-13.4504304812502	133.397523206158	-0.747536561654955	-111.423560560177			-0.811849905441957	-111.519985762021	-13.8652972222236	126.736290991274
2590000000	-13.2957907239055	132.499737584492	-0.729481674190326	-112.345861937703			-0.846684195186795	-112.648336081892	-13.7611934069803	125.709583500326
2595000000	-12.9905941986063	133.471294536036	-0.744112623082624	-113.233792638581			-0.850366139705612	-113.638721980057	-13.4738933438322	123.635430026314
2600000000	-13.0050661450298	132.746255223182	-0.719876178914962	-114.497506144396			-0.888119287069748	-114.762847679409	-13.4832205423608	123.060843484363
2605000000	-12.8145121317377	132.100948834014	-0.72030114694538	-115.512943150366			-0.923017983618733	-115.800996949449	-13.3251722235707	122.570562030242
2610000000	-12.6208306470572	130.545820026581	-0.739385061336566	-116.359806993299			-0.934383354521351	-116.751750228892	-13.1521888980449	122.593756694971
2615000000	-12.3757945330954	130.430986590555	-0.757896685463014	-117.466103792413			-0.956977767171418	-117.610231701612	-12.9316634423884	121.327049025998
2620000000	-12.2550677918293	129.070030424744	-0.779201360677679	-118.463283486731			-0.985280382017526	-118.312878698031	-12.8459461655776	121.00902624438
2625000000	-12.2522230934981	127.330814023811	-0.789726733474311	-119.187485786856			-1.02747222094039	-119.08394201106	-12.8246470703976	121.698363396808
