<Qucs Dataset 0.0.11>
<indep frequency 200>
  +2.00000000000e+09
  +2.00407918049e+09
  +2.00816668084e+09
  +2.01226251802e+09
  +2.01636670902e+09
  +2.02047927090e+09
  +2.02460022071e+09
  +2.02872957557e+09
  +2.03286735263e+09
  +2.03701356905e+09
  +2.04116824206e+09
  +2.04533138890e+09
  +2.04950302685e+09
  +2.05368317323e+09
  +2.05787184540e+09
  +2.06206906075e+09
  +2.06627483669e+09
  +2.07048919069e+09
  +2.07471214025e+09
  +2.07894370290e+09
  +2.08318389620e+09
  +2.08743273775e+09
  +2.09169024520e+09
  +2.09595643623e+09
  +2.10023132853e+09
  +2.10451493986e+09
  +2.10880728801e+09
  +2.11310839078e+09
  +2.11741826605e+09
  +2.12173693169e+09
  +2.12606440564e+09
  +2.13040070587e+09
  +2.13474585037e+09
  +2.13909985718e+09
  +2.14346274439e+09
  +2.14783453009e+09
  +2.15221523245e+09
  +2.15660486965e+09
  +2.16100345991e+09
  +2.16541102149e+09
  +2.16982757268e+09
  +2.17425313184e+09
  +2.17868771732e+09
  +2.18313134754e+09
  +2.18758404094e+09
  +2.19204581601e+09
  +2.19651669128e+09
  +2.20099668530e+09
  +2.20548581667e+09
  +2.20998410403e+09
  +2.21449156605e+09
  +2.21900822145e+09
  +2.22353408898e+09
  +2.22806918742e+09
  +2.23261353560e+09
  +2.23716715239e+09
  +2.24173005670e+09
  +2.24630226745e+09
  +2.25088380365e+09
  +2.25547468430e+09
  +2.26007492847e+09
  +2.26468455525e+09
  +2.26930358378e+09
  +2.27393203323e+09
  +2.27856992283e+09
  +2.28321727182e+09
  +2.28787409950e+09
  +2.29254042520e+09
  +2.29721626829e+09
  +2.30190164818e+09
  +2.30659658433e+09
  +2.31130109623e+09
  +2.31601520340e+09
  +2.32073892542e+09
  +2.32547228190e+09
  +2.33021529248e+09
  +2.33496797686e+09
  +2.33973035477e+09
  +2.34450244599e+09
  +2.34928427031e+09
  +2.35407584759e+09
  +2.35887719773e+09
  +2.36368834065e+09
  +2.36850929634e+09
  +2.37334008480e+09
  +2.37818072609e+09
  +2.38303124030e+09
  +2.38789164757e+09
  +2.39276196809e+09
  +2.39764222206e+09
  +2.40253242975e+09
  +2.40743261146e+09
  +2.41234278753e+09
  +2.41726297835e+09
  +2.42219320435e+09
  +2.42713348598e+09
  +2.43208384377e+09
  +2.43704429825e+09
  +2.44201487003e+09
  +2.44699557974e+09
  +2.45198644806e+09
  +2.45698749571e+09
  +2.46199874344e+09
  +2.46702021206e+09
  +2.47205192242e+09
  +2.47709389541e+09
  +2.48214615196e+09
  +2.48720871304e+09
  +2.49228159967e+09
  +2.49736483292e+09
  +2.50245843387e+09
  +2.50756242369e+09
  +2.51267682355e+09
  +2.51780165469e+09
  +2.52293693839e+09
  +2.52808269596e+09
  +2.53323894877e+09
  +2.53840571822e+09
  +2.54358302576e+09
  +2.54877089289e+09
  +2.55396934115e+09
  +2.55917839210e+09
  +2.56439806739e+09
  +2.56962838868e+09
  +2.57486937768e+09
  +2.58012105614e+09
  +2.58538344588e+09
  +2.59065656874e+09
  +2.59594044661e+09
  +2.60123510143e+09
  +2.60654055517e+09
  +2.61185682986e+09
  +2.61718394758e+09
  +2.62252193043e+09
  +2.62787080058e+09
  +2.63323058023e+09
  +2.63860129164e+09
  +2.64398295710e+09
  +2.64937559895e+09
  +2.65477923958e+09
  +2.66019390143e+09
  +2.66561960696e+09
  +2.67105637871e+09
  +2.67650423925e+09
  +2.68196321119e+09
  +2.68743331720e+09
  +2.69291457998e+09
  +2.69840702229e+09
  +2.70391066693e+09
  +2.70942553676e+09
  +2.71495165466e+09
  +2.72048904357e+09
  +2.72603772649e+09
  +2.73159772645e+09
  +2.73716906653e+09
  +2.74275176986e+09
  +2.74834585962e+09
  +2.75395135902e+09
  +2.75956829136e+09
  +2.76519667993e+09
  +2.77083654810e+09
  +2.77648791930e+09
  +2.78215081698e+09
  +2.78782526465e+09
  +2.79351128587e+09
  +2.79920890424e+09
  +2.80491814342e+09
  +2.81063902711e+09
  +2.81637157905e+09
  +2.82211582306e+09
  +2.82787178296e+09
  +2.83363948267e+09
  +2.83941894612e+09
  +2.84521019731e+09
  +2.85101326028e+09
  +2.85682815911e+09
  +2.86265491796e+09
  +2.86849356101e+09
  +2.87434411250e+09
  +2.88020659672e+09
  +2.88608103800e+09
  +2.89196746074e+09
  +2.89786588936e+09
  +2.90377634837e+09
  +2.90969886228e+09
  +2.91563345570e+09
  +2.92158015326e+09
  +2.92753897965e+09
  +2.93350995959e+09
  +2.93949311790e+09
  +2.94548847939e+09
  +2.95149606896e+09
  +2.95751591156e+09
  +2.96354803216e+09
  +2.96959245582e+09
  +2.97564920763e+09
  +2.98171831273e+09
  +2.98779979632e+09
  +2.99389368364e+09
  +3.00000000000e+09
</indep>
<dep S11 frequency>
  -5.78857205550e-01-j7.94925361409e-01
  -5.96128684678e-01-j7.82079686678e-01
  -6.13104425183e-01-j7.68866522640e-01
  -6.29777452855e-01-j7.55292310769e-01
  -6.46140934569e-01-j7.41363570054e-01
  -6.62188175915e-01-j7.27086893524e-01
  -6.77912618727e-01-j7.12468945008e-01
  -6.93307838528e-01-j6.97516456122e-01
  -7.08367541898e-01-j6.82236223496e-01
  -7.23085563776e-01-j6.66635106240e-01
  -7.37455864715e-01-j6.50720023638e-01
  -7.51472528084e-01-j6.34497953089e-01
  -7.65129757249e-01-j6.17975928277e-01
  -7.78421872725e-01-j6.01161037584e-01
  -7.91343309318e-01-j5.84060422743e-01
  -8.03888613271e-01-j5.66681277713e-01
  -8.16052439418e-01-j5.49030847811e-01
  -8.27829548350e-01-j5.31116429055e-01
  -8.39214803624e-01-j5.12945367763e-01
  -8.50203169003e-01-j4.94525060363e-01
  -8.60789705741e-01-j4.75862953446e-01
  -8.70969569943e-01-j4.56966544047e-01
  -8.80738009975e-01-j4.37843380140e-01
  -8.90090363963e-01-j4.18501061372e-01
  -8.99022057380e-01-j3.98947240009e-01
  -9.07528600724e-01-j3.79189622103e-01
  -9.15605587308e-01-j3.59235968879e-01
  -9.23248691166e-01-j3.39094098328e-01
  -9.30453665078e-01-j3.18771887021e-01
  -9.37216338743e-01-j2.98277272125e-01
  -9.43532617085e-01-j2.77618253620e-01
  -9.49398478719e-01-j2.56802896727e-01
  -9.54809974581e-01-j2.35839334524e-01
  -9.59763226738e-01-j2.14735770763e-01
  -9.64254427369e-01-j1.93500482875e-01
  -9.68279837954e-01-j1.72141825161e-01
  -9.71835788667e-01-j1.50668232161e-01
  -9.74918677972e-01-j1.29088222209e-01
  -9.77524972466e-01-j1.07410401154e-01
  -9.79651206941e-01-j8.56434662480e-02
  -9.81293984707e-01-j6.37962101993e-02
  -9.82449978169e-01-j4.18775253807e-02
  -9.83115929680e-01-j1.98964081868e-02
  -9.83288652678e-01+j2.13803646424e-03
  -9.82965033114e-01+j2.42165904935e-02
  -9.82142031199e-01+j4.63299178942e-02
  -9.80816683463e-01+j6.84685598445e-02
  -9.78986105157e-01+j9.06229297081e-02
  -9.76647492999e-01+j1.12783307932e-01
  -9.73798128284e-01+j1.34939836850e-01
  -9.70435380376e-01+j1.57082515407e-01
  -9.66556710578e-01+j1.79201193811e-01
  -9.62159676425e-01+j2.01285568125e-01
  -9.57241936382e-01+j2.23325174819e-01
  -9.51801254990e-01+j2.45309385284e-01
  -9.45835508459e-01+j2.67227400341e-01
  -9.39342690723e-01+j2.89068244740e-01
  -9.32320919992e-01+j3.10820761689e-01
  -9.24768445785e-01+j3.32473607413e-01
  -9.16683656494e-01+j3.54015245778e-01
  -9.08065087470e-01+j3.75433942991e-01
  -8.98911429657e-01+j3.96717762408e-01
  -8.89221538792e-01+j4.17854559472e-01
  -8.78994445182e-01+j4.38831976802e-01
  -8.68229364072e-01+j4.59637439478e-01
  -8.56925706628e-01+j4.80258150528e-01
  -8.45083091537e-01+j5.00681086681e-01
  -8.32701357247e-01+j5.20892994387e-01
  -8.19780574855e-01+j5.40880386171e-01
  -8.06321061663e-01+j5.60629537345e-01
  -7.92323395398e-01+j5.80126483112e-01
  -7.77788429122e-01+j5.99357016134e-01
  -7.62717306825e-01+j6.18306684581e-01
  -7.47111479729e-01+j6.36960790726e-01
  -7.30972723275e-01+j6.55304390136e-01
  -7.14303154830e-01+j6.73322291516e-01
  -6.97105252087e-01+j6.90999057253e-01
  -6.79381872173e-01+j7.08319004735e-01
  -6.61136271449e-01+j7.25266208500e-01
  -6.42372125989e-01+j7.41824503274e-01
  -6.23093552746e-01+j7.57977487986e-01
  -6.03305131355e-01+j7.73708530812e-01
  -5.83011926583e-01+j7.89000775331e-01
  -5.62219511376e-01+j8.03837147866e-01
  -5.40933990485e-01+j8.18200366090e-01
  -5.19162024627e-01+j8.32072948983e-01
  -4.96910855138e-01+j8.45437228205e-01
  -4.74188329068e-01+j8.58275360987e-01
  -4.51002924658e-01+j8.70569344620e-01
  -4.27363777140e-01+j8.82301032617e-01
  -4.03280704779e-01+j8.93452152652e-01
  -3.78764235075e-01+j9.04004326347e-01
  -3.53825631050e-01+j9.13939090997e-01
  -3.28476917490e-01+j9.23237923319e-01
  -3.02730907066e-01+j9.31882265308e-01
  -2.76601226188e-01+j9.39853552269e-01
  -2.50102340471e-01+j9.47133243110e-01
  -2.23249579676e-01+j9.53702852966e-01
  -1.96059161970e-01+j9.59543988211e-01
  -1.68548217331e-01+j9.64638383925e-01
  -1.40734809945e-01+j9.68967943853e-01
  -1.12637959389e-01+j9.72514782917e-01
  -8.42776604097e-02+j9.75261272291e-01
  -5.56749010990e-02+j9.77190087066e-01
  -2.68516792279e-02+j9.78284256514e-01
  +2.16898347194e-03+j9.78527216931e-01
  +3.13630293267e-02+j9.77902867039e-01
  +6.07053552827e-02+j9.76395625906e-01
  +9.01698062678e-02+j9.73990493311e-01
  +1.19729171612e-01+j9.70673112475e-01
  +1.49355184793e-01+j9.66429835055e-01
  +1.79018526775e-01+j9.61247788252e-01
  +2.08688833215e-01+j9.55114943907e-01
  +2.38334705798e-01+j9.48020189363e-01
  +2.67923727974e-01+j9.39953399917e-01
  +2.97422485364e-01+j9.30905512595e-01
  +3.26796591066e-01+j9.20868600996e-01
  +3.56010716133e-01+j9.09835950900e-01
  +3.85028625422e-01+j8.97802136302e-01
  +4.13813219046e-01+j8.84763095518e-01
  +4.42326579595e-01+j8.70716206973e-01
  +4.70530025314e-01+j8.55660364236e-01
  +4.98384169347e-01+j8.39596049868e-01
  +5.25848985171e-01+j8.22525407590e-01
  +5.52883878266e-01+j8.04452312287e-01
  +5.79447764062e-01+j7.85382437298e-01
  +6.05499152135e-01+j7.65323318478e-01
  +6.30996236591e-01+j7.44284414441e-01
  +6.55896992517e-01+j7.22277162441e-01
  +6.80159278338e-01+j6.99315029280e-01
  +7.03740943848e-01+j6.75413556697e-01
  +7.26599943627e-01+j6.50590400621e-01
  +7.48694455521e-01+j6.24865363753e-01
  +7.69983003759e-01+j5.98260420890e-01
  +7.90424586252e-01+j5.70799736485e-01
  +8.09978805562e-01+j5.42509673919e-01
  +8.28606002941e-01+j5.13418796029e-01
  +8.46267394805e-01+j4.83557856456e-01
  +8.62925210961e-01+j4.52959781438e-01
  +8.78542833830e-01+j4.21659641734e-01
  +8.93084937888e-01+j3.89694614414e-01
  +9.06517628490e-01+j3.57103934325e-01
  +9.18808579225e-01+j3.23928835129e-01
  +9.29927166910e-01+j2.90212479863e-01
  +9.39844603321e-01+j2.55999881086e-01
  +9.48534062753e-01+j2.21337810734e-01
  +9.55970804488e-01+j1.86274699926e-01
  +9.62132289286e-01+j1.50860529012e-01
  +9.66998288995e-01+j1.15146708301e-01
  +9.70550988451e-01+j7.91859499354e-02
  +9.72775078844e-01+j4.30321315145e-02
  +9.73657841785e-01+j6.74015212682e-03
  +9.73189223398e-01-j2.96342184622e-02
  +9.71361897766e-01-j6.60344966489e-02
  +9.68171319213e-01-j1.02403646972e-01
  +9.63615762925e-01-j1.38684248293e-01
  +9.57696353554e-01-j1.74818663190e-01
  +9.50417081491e-01-j2.10749209537e-01
  +9.41784806663e-01-j2.46418333203e-01
  +9.31809249749e-01-j2.81768780824e-01
  +9.20502970844e-01-j3.16743771544e-01
  +9.07881335727e-01-j3.51287166674e-01
  +8.93962469931e-01-j3.85343636209e-01
  +8.78767200989e-01-j4.18858821188e-01
  +8.62318989267e-01-j4.51779490907e-01
  +8.44643847916e-01-j4.84053694061e-01
  +8.25770252567e-01-j5.15630902943e-01
  +8.05729041435e-01-j5.46462149897e-01
  +7.84553306614e-01-j5.76500155296e-01
  +7.62278277371e-01-j6.05699446412e-01
  +7.38941196304e-01-j6.34016466603e-01
  +7.14581189288e-01-j6.61409674385e-01
  +6.89239130132e-01-j6.87839631977e-01
  +6.62957500912e-01-j7.13269083086e-01
  +6.35780248949e-01-j7.37663019728e-01
  +6.07752641387e-01-j7.60988738003e-01
  +5.78921118334e-01-j7.83215882848e-01
  +5.49333145484e-01-j8.04316481843e-01
  +5.19037067136e-01-j8.24264968261e-01
  +4.88081960462e-01-j8.43038193629e-01
  +4.56517491849e-01-j8.60615430109e-01
  +4.24393776081e-01-j8.76978363127e-01
  +3.91761239081e-01-j8.92111074673e-01
  +3.58670484847e-01-j9.06000017818e-01
  +3.25172167193e-01-j9.18633982967e-01
  +2.91316866807e-01-j9.30004056462e-01
  +2.57154974078e-01-j9.40103572134e-01
  +2.22736578092e-01-j9.48928056462e-01
  +1.88111362113e-01-j9.56475167978e-01
  +1.53328505800e-01-j9.62744631579e-01
  +1.18436594361e-01-j9.67738168413e-01
  +8.34835347671e-02-j9.71459421994e-01
  +4.85164790997e-02-j9.73913881187e-01
  +1.35817550442e-02-j9.75108800682e-01
  -2.12751965035e-02-j9.75053119587e-01
  -5.60098768047e-02-j9.73757378705e-01
  -9.05787777471e-02-j9.71233637055e-01
  -1.24939423582e-01-j9.67495388167e-01
  -1.59050406134e-01-j9.62557476640e-01
  -1.92871413715e-01-j9.56436015430e-01
</dep>
<dep REAL frequency>
  -5.78857205550e-01
  -5.96128684678e-01
  -6.13104425183e-01
  -6.29777452855e-01
  -6.46140934569e-01
  -6.62188175915e-01
  -6.77912618727e-01
  -6.93307838528e-01
  -7.08367541898e-01
  -7.23085563776e-01
  -7.37455864715e-01
  -7.51472528084e-01
  -7.65129757249e-01
  -7.78421872725e-01
  -7.91343309318e-01
  -8.03888613271e-01
  -8.16052439418e-01
  -8.27829548350e-01
  -8.39214803624e-01
  -8.50203169003e-01
  -8.60789705741e-01
  -8.70969569943e-01
  -8.80738009975e-01
  -8.90090363963e-01
  -8.99022057380e-01
  -9.07528600724e-01
  -9.15605587308e-01
  -9.23248691166e-01
  -9.30453665078e-01
  -9.37216338743e-01
  -9.43532617085e-01
  -9.49398478719e-01
  -9.54809974581e-01
  -9.59763226738e-01
  -9.64254427369e-01
  -9.68279837954e-01
  -9.71835788667e-01
  -9.74918677972e-01
  -9.77524972466e-01
  -9.79651206941e-01
  -9.81293984707e-01
  -9.82449978169e-01
  -9.83115929680e-01
  -9.83288652678e-01
  -9.82965033114e-01
  -9.82142031199e-01
  -9.80816683463e-01
  -9.78986105157e-01
  -9.76647492999e-01
  -9.73798128284e-01
  -9.70435380376e-01
  -9.66556710578e-01
  -9.62159676425e-01
  -9.57241936382e-01
  -9.51801254990e-01
  -9.45835508459e-01
  -9.39342690723e-01
  -9.32320919992e-01
  -9.24768445785e-01
  -9.16683656494e-01
  -9.08065087470e-01
  -8.98911429657e-01
  -8.89221538792e-01
  -8.78994445182e-01
  -8.68229364072e-01
  -8.56925706628e-01
  -8.45083091537e-01
  -8.32701357247e-01
  -8.19780574855e-01
  -8.06321061663e-01
  -7.92323395398e-01
  -7.77788429122e-01
  -7.62717306825e-01
  -7.47111479729e-01
  -7.30972723275e-01
  -7.14303154830e-01
  -6.97105252087e-01
  -6.79381872173e-01
  -6.61136271449e-01
  -6.42372125989e-01
  -6.23093552746e-01
  -6.03305131355e-01
  -5.83011926583e-01
  -5.62219511376e-01
  -5.40933990485e-01
  -5.19162024627e-01
  -4.96910855138e-01
  -4.74188329068e-01
  -4.51002924658e-01
  -4.27363777140e-01
  -4.03280704779e-01
  -3.78764235075e-01
  -3.53825631050e-01
  -3.28476917490e-01
  -3.02730907066e-01
  -2.76601226188e-01
  -2.50102340471e-01
  -2.23249579676e-01
  -1.96059161970e-01
  -1.68548217331e-01
  -1.40734809945e-01
  -1.12637959389e-01
  -8.42776604097e-02
  -5.56749010990e-02
  -2.68516792279e-02
  +2.16898347194e-03
  +3.13630293267e-02
  +6.07053552827e-02
  +9.01698062678e-02
  +1.19729171612e-01
  +1.49355184793e-01
  +1.79018526775e-01
  +2.08688833215e-01
  +2.38334705798e-01
  +2.67923727974e-01
  +2.97422485364e-01
  +3.26796591066e-01
  +3.56010716133e-01
  +3.85028625422e-01
  +4.13813219046e-01
  +4.42326579595e-01
  +4.70530025314e-01
  +4.98384169347e-01
  +5.25848985171e-01
  +5.52883878266e-01
  +5.79447764062e-01
  +6.05499152135e-01
  +6.30996236591e-01
  +6.55896992517e-01
  +6.80159278338e-01
  +7.03740943848e-01
  +7.26599943627e-01
  +7.48694455521e-01
  +7.69983003759e-01
  +7.90424586252e-01
  +8.09978805562e-01
  +8.28606002941e-01
  +8.46267394805e-01
  +8.62925210961e-01
  +8.78542833830e-01
  +8.93084937888e-01
  +9.06517628490e-01
  +9.18808579225e-01
  +9.29927166910e-01
  +9.39844603321e-01
  +9.48534062753e-01
  +9.55970804488e-01
  +9.62132289286e-01
  +9.66998288995e-01
  +9.70550988451e-01
  +9.72775078844e-01
  +9.73657841785e-01
  +9.73189223398e-01
  +9.71361897766e-01
  +9.68171319213e-01
  +9.63615762925e-01
  +9.57696353554e-01
  +9.50417081491e-01
  +9.41784806663e-01
  +9.31809249749e-01
  +9.20502970844e-01
  +9.07881335727e-01
  +8.93962469931e-01
  +8.78767200989e-01
  +8.62318989267e-01
  +8.44643847916e-01
  +8.25770252567e-01
  +8.05729041435e-01
  +7.84553306614e-01
  +7.62278277371e-01
  +7.38941196304e-01
  +7.14581189288e-01
  +6.89239130132e-01
  +6.62957500912e-01
  +6.35780248949e-01
  +6.07752641387e-01
  +5.78921118334e-01
  +5.49333145484e-01
  +5.19037067136e-01
  +4.88081960462e-01
  +4.56517491849e-01
  +4.24393776081e-01
  +3.91761239081e-01
  +3.58670484847e-01
  +3.25172167193e-01
  +2.91316866807e-01
  +2.57154974078e-01
  +2.22736578092e-01
  +1.88111362113e-01
  +1.53328505800e-01
  +1.18436594361e-01
  +8.34835347671e-02
  +4.85164790997e-02
  +1.35817550442e-02
  -2.12751965035e-02
  -5.60098768047e-02
  -9.05787777471e-02
  -1.24939423582e-01
  -1.59050406134e-01
  -1.92871413715e-01
</dep>
<dep IMAG frequency>
  -7.94925361409e-01
  -7.82079686678e-01
  -7.68866522640e-01
  -7.55292310769e-01
  -7.41363570054e-01
  -7.27086893524e-01
  -7.12468945008e-01
  -6.97516456122e-01
  -6.82236223496e-01
  -6.66635106240e-01
  -6.50720023638e-01
  -6.34497953089e-01
  -6.17975928277e-01
  -6.01161037584e-01
  -5.84060422743e-01
  -5.66681277713e-01
  -5.49030847811e-01
  -5.31116429055e-01
  -5.12945367763e-01
  -4.94525060363e-01
  -4.75862953446e-01
  -4.56966544047e-01
  -4.37843380140e-01
  -4.18501061372e-01
  -3.98947240009e-01
  -3.79189622103e-01
  -3.59235968879e-01
  -3.39094098328e-01
  -3.18771887021e-01
  -2.98277272125e-01
  -2.77618253620e-01
  -2.56802896727e-01
  -2.35839334524e-01
  -2.14735770763e-01
  -1.93500482875e-01
  -1.72141825161e-01
  -1.50668232161e-01
  -1.29088222209e-01
  -1.07410401154e-01
  -8.56434662480e-02
  -6.37962101993e-02
  -4.18775253807e-02
  -1.98964081868e-02
  +2.13803646424e-03
  +2.42165904935e-02
  +4.63299178942e-02
  +6.84685598445e-02
  +9.06229297081e-02
  +1.12783307932e-01
  +1.34939836850e-01
  +1.57082515407e-01
  +1.79201193811e-01
  +2.01285568125e-01
  +2.23325174819e-01
  +2.45309385284e-01
  +2.67227400341e-01
  +2.89068244740e-01
  +3.10820761689e-01
  +3.32473607413e-01
  +3.54015245778e-01
  +3.75433942991e-01
  +3.96717762408e-01
  +4.17854559472e-01
  +4.38831976802e-01
  +4.59637439478e-01
  +4.80258150528e-01
  +5.00681086681e-01
  +5.20892994387e-01
  +5.40880386171e-01
  +5.60629537345e-01
  +5.80126483112e-01
  +5.99357016134e-01
  +6.18306684581e-01
  +6.36960790726e-01
  +6.55304390136e-01
  +6.73322291516e-01
  +6.90999057253e-01
  +7.08319004735e-01
  +7.25266208500e-01
  +7.41824503274e-01
  +7.57977487986e-01
  +7.73708530812e-01
  +7.89000775331e-01
  +8.03837147866e-01
  +8.18200366090e-01
  +8.32072948983e-01
  +8.45437228205e-01
  +8.58275360987e-01
  +8.70569344620e-01
  +8.82301032617e-01
  +8.93452152652e-01
  +9.04004326347e-01
  +9.13939090997e-01
  +9.23237923319e-01
  +9.31882265308e-01
  +9.39853552269e-01
  +9.47133243110e-01
  +9.53702852966e-01
  +9.59543988211e-01
  +9.64638383925e-01
  +9.68967943853e-01
  +9.72514782917e-01
  +9.75261272291e-01
  +9.77190087066e-01
  +9.78284256514e-01
  +9.78527216931e-01
  +9.77902867039e-01
  +9.76395625906e-01
  +9.73990493311e-01
  +9.70673112475e-01
  +9.66429835055e-01
  +9.61247788252e-01
  +9.55114943907e-01
  +9.48020189363e-01
  +9.39953399917e-01
  +9.30905512595e-01
  +9.20868600996e-01
  +9.09835950900e-01
  +8.97802136302e-01
  +8.84763095518e-01
  +8.70716206973e-01
  +8.55660364236e-01
  +8.39596049868e-01
  +8.22525407590e-01
  +8.04452312287e-01
  +7.85382437298e-01
  +7.65323318478e-01
  +7.44284414441e-01
  +7.22277162441e-01
  +6.99315029280e-01
  +6.75413556697e-01
  +6.50590400621e-01
  +6.24865363753e-01
  +5.98260420890e-01
  +5.70799736485e-01
  +5.42509673919e-01
  +5.13418796029e-01
  +4.83557856456e-01
  +4.52959781438e-01
  +4.21659641734e-01
  +3.89694614414e-01
  +3.57103934325e-01
  +3.23928835129e-01
  +2.90212479863e-01
  +2.55999881086e-01
  +2.21337810734e-01
  +1.86274699926e-01
  +1.50860529012e-01
  +1.15146708301e-01
  +7.91859499354e-02
  +4.30321315145e-02
  +6.74015212682e-03
  -2.96342184622e-02
  -6.60344966489e-02
  -1.02403646972e-01
  -1.38684248293e-01
  -1.74818663190e-01
  -2.10749209537e-01
  -2.46418333203e-01
  -2.81768780824e-01
  -3.16743771544e-01
  -3.51287166674e-01
  -3.85343636209e-01
  -4.18858821188e-01
  -4.51779490907e-01
